date 2026-02-05
base hex  timestamps relative
internal events logged

1.654639300 1 080 Rx d 2 E8 03
1.665262500 1 080 Rx d 2 F2 03
1.675889400 1 080 Rx d 2 FC 03
1.686442200 1 080 Rx d 2 06 04
1.696674400 1 080 Rx d 2 10 04
1.707560700 1 080 Rx d 2 1A 04
1.717989300 1 080 Rx d 2 24 04
1.728517500 1 080 Rx d 2 2E 04
1.738984500 1 080 Rx d 2 38 04
1.749360600 1 080 Rx d 2 42 04
1.759589300 1 080 Rx d 2 4C 04
1.770156900 1 080 Rx d 2 56 04
1.780552800 1 080 Rx d 2 60 04
1.791002700 1 080 Rx d 2 6A 04
1.801605300 1 080 Rx d 2 74 04
1.811959300 1 080 Rx d 2 7E 04
1.822389500 1 080 Rx d 2 88 04
1.833015700 1 080 Rx d 2 92 04
1.843596500 1 080 Rx d 2 9C 04
1.854386200 1 080 Rx d 2 A6 04
1.864856600 1 080 Rx d 2 B0 04
1.875169600 1 080 Rx d 2 BA 04
1.885731000 1 080 Rx d 2 C4 04
1.896077600 1 080 Rx d 2 CE 04
1.906655000 1 080 Rx d 2 D8 04
1.917076000 1 080 Rx d 2 E2 04
1.927647900 1 080 Rx d 2 EC 04
1.938256800 1 080 Rx d 2 F6 04
1.948766900 1 080 Rx d 2 00 05
1.959328500 1 080 Rx d 2 0A 05
1.969854200 1 080 Rx d 2 14 05
1.980334800 1 080 Rx d 2 1E 05
1.990767400 1 080 Rx d 2 28 05
2.001520400 1 080 Rx d 2 32 05
2.012216600 1 080 Rx d 2 3C 05
2.022575800 1 080 Rx d 2 46 05
2.033205200 1 080 Rx d 2 50 05
2.043728500 1 080 Rx d 2 5A 05
2.061162100 1 080 Rx d 2 64 05
2.095441700 1 080 Rx d 2 6E 05
2.111125200 1 080 Rx d 2 78 05
2.121777600 1 080 Rx d 2 82 05
2.132357500 1 080 Rx d 2 8C 05
2.142849500 1 080 Rx d 2 96 05
2.153423700 1 080 Rx d 2 A0 05
2.164177900 1 080 Rx d 2 AA 05
2.174705100 1 080 Rx d 2 B4 05
2.185016600 1 080 Rx d 2 BE 05
2.195580900 1 080 Rx d 2 C8 05
2.206122300 1 080 Rx d 2 D2 05
2.216635200 1 080 Rx d 2 DC 05
2.227196400 1 080 Rx d 2 E6 05
2.237713800 1 080 Rx d 2 F0 05
2.248234800 1 080 Rx d 2 FA 05
2.258787700 1 080 Rx d 2 04 06
2.269388300 1 080 Rx d 2 0E 06
2.280097100 1 080 Rx d 2 18 06
2.290502400 1 080 Rx d 2 22 06
2.300999200 1 080 Rx d 2 2C 06
2.311530900 1 080 Rx d 2 36 06
2.322074200 1 080 Rx d 2 40 06
2.332563600 1 080 Rx d 2 4A 06
2.343111200 1 080 Rx d 2 54 06
2.353491600 1 080 Rx d 2 5E 06
2.364052500 1 080 Rx d 2 68 06
2.374408900 1 080 Rx d 2 72 06
2.384718300 1 080 Rx d 2 7C 06
2.395227300 1 080 Rx d 2 86 06
2.405733300 1 080 Rx d 2 90 06
2.416302800 1 080 Rx d 2 9A 06
2.426845800 1 080 Rx d 2 A4 06
2.442940700 1 080 Rx d 2 AE 06
2.453611600 1 080 Rx d 2 B8 06
2.464224400 1 080 Rx d 2 C2 06
2.474689900 1 080 Rx d 2 CC 06
2.485301100 1 080 Rx d 2 D6 06
2.495998800 1 080 Rx d 2 E0 06
2.506286500 1 080 Rx d 2 EA 06
2.516838000 1 080 Rx d 2 F4 06
2.527375200 1 080 Rx d 2 FE 06
2.537909800 1 080 Rx d 2 08 07
2.548347600 1 080 Rx d 2 12 07
2.558826500 1 080 Rx d 2 1C 07
2.569156900 1 080 Rx d 2 26 07
2.579734800 1 080 Rx d 2 30 07
2.590270800 1 080 Rx d 2 3A 07
2.600851800 1 080 Rx d 2 44 07
2.611173300 1 080 Rx d 2 4E 07
2.621482900 1 080 Rx d 2 58 07
2.631980800 1 080 Rx d 2 62 07
2.642460700 1 080 Rx d 2 6C 07
2.653033200 1 080 Rx d 2 76 07
2.663642100 1 080 Rx d 2 80 07
2.673987000 1 080 Rx d 2 8A 07
2.684251900 1 080 Rx d 2 94 07
2.694713000 1 080 Rx d 2 9E 07
2.705414800 1 080 Rx d 2 A8 07
2.716065800 1 080 Rx d 2 B2 07
2.726590700 1 080 Rx d 2 BC 07
2.737588500 1 100 Rx d 2 32 00
2.748154700 1 080 Rx d 2 C6 07
2.759121800 1 080 Rx d 2 D0 07
2.769649000 1 100 Rx d 2 33 00
2.780228100 1 080 Rx d 2 DA 07
2.790536300 1 100 Rx d 2 34 00
2.800821800 1 080 Rx d 2 E4 07
2.811417300 1 100 Rx d 2 35 00
2.822235200 1 100 Rx d 2 36 00
2.832786000 1 080 Rx d 2 EE 07
2.843566200 1 080 Rx d 2 F8 07
2.854056500 1 100 Rx d 2 37 00
2.864687000 1 100 Rx d 2 38 00
2.875174100 1 080 Rx d 2 02 08
2.886028500 1 100 Rx d 2 39 00
2.896765700 1 080 Rx d 2 0C 08
2.907172200 1 100 Rx d 2 3A 00
2.917764200 1 080 Rx d 2 16 08
2.928414300 1 100 Rx d 2 3B 00
2.938935700 1 080 Rx d 2 20 08
2.949593700 1 100 Rx d 2 3C 00
2.959963300 1 080 Rx d 2 2A 08
2.970653300 1 100 Rx d 2 3D 00
2.980898700 1 080 Rx d 2 34 08
2.991475900 1 080 Rx d 2 3E 08
3.002049700 1 100 Rx d 2 3E 00
3.012733100 1 100 Rx d 2 3F 00
3.023198800 1 080 Rx d 2 48 08
3.034114700 1 100 Rx d 2 40 00
3.044776500 1 080 Rx d 2 52 08
3.055399400 1 100 Rx d 2 41 00
3.066436700 1 080 Rx d 2 5C 08
3.077018300 1 100 Rx d 2 42 00
3.087430200 1 080 Rx d 2 66 08
3.106552000 1 100 Rx d 2 43 00
3.117114300 1 080 Rx d 2 70 08
3.127520100 1 100 Rx d 2 44 00
3.138021600 1 080 Rx d 2 7A 08
3.148633800 1 100 Rx d 2 45 00
3.159361400 1 080 Rx d 2 84 08
3.169983400 1 100 Rx d 2 46 00
3.180486500 1 080 Rx d 2 8E 08
3.190870800 1 100 Rx d 2 47 00
3.201250900 1 080 Rx d 2 98 08
3.212059600 1 100 Rx d 2 48 00
3.222383100 1 080 Rx d 2 A2 08
3.232902300 1 100 Rx d 2 49 00
3.243414500 1 080 Rx d 2 AC 08
3.254465700 1 100 Rx d 2 4A 00
3.265419900 1 080 Rx d 2 B6 08
3.276240400 1 100 Rx d 2 4B 00
3.286851000 1 080 Rx d 2 C0 08
3.297557200 1 100 Rx d 2 4C 00
3.308057800 1 080 Rx d 2 CA 08
3.318923500 1 100 Rx d 2 4D 00
3.329601100 1 080 Rx d 2 D4 08
3.339919400 1 100 Rx d 2 4E 00
3.350568800 1 080 Rx d 2 DE 08
3.361354700 1 100 Rx d 2 4F 00
3.371997300 1 080 Rx d 2 E8 08
3.382476500 1 100 Rx d 2 50 00
3.392794400 1 080 Rx d 2 F2 08
3.403455700 1 080 Rx d 2 FC 08
3.413916400 1 100 Rx d 2 51 00
3.424489100 1 100 Rx d 2 52 00
3.435124300 1 080 Rx d 2 06 09
3.445747300 1 080 Rx d 2 10 09
3.456317600 1 100 Rx d 2 53 00
3.466810300 1 080 Rx d 2 1A 09
3.477618400 1 100 Rx d 2 54 00
3.488354100 1 100 Rx d 2 55 00
3.498946200 1 080 Rx d 2 24 09
3.509488800 1 100 Rx d 2 56 00
3.519850200 1 080 Rx d 2 2E 09
3.530492300 1 100 Rx d 2 57 00
3.540985800 1 080 Rx d 2 38 09
3.551466900 1 100 Rx d 2 58 00
3.562020700 1 080 Rx d 2 42 09
3.572616300 1 100 Rx d 2 59 00
3.583313600 1 080 Rx d 2 4C 09
3.593817200 1 080 Rx d 2 56 09
3.604355100 1 100 Rx d 2 5A 00
3.614841100 1 100 Rx d 2 5B 00
3.625316600 1 080 Rx d 2 60 09
3.635565100 1 080 Rx d 2 6A 09
3.645747700 1 100 Rx d 2 5C 00
3.656328500 1 100 Rx d 2 5D 00
3.667155100 1 080 Rx d 2 74 09
3.677535700 1 100 Rx d 2 5E 00
3.688257700 1 080 Rx d 2 7E 09
3.698856400 1 100 Rx d 2 5F 00
3.709267000 1 100 Rx d 2 60 00
3.719528400 1 080 Rx d 2 88 09
3.730060500 1 080 Rx d 2 92 09
3.740673600 1 100 Rx d 2 61 00
3.751332700 1 080 Rx d 2 9C 09
3.761954700 1 100 Rx d 2 62 00
3.772415600 1 080 Rx d 2 A6 09
3.783115300 1 100 Rx d 2 63 00
3.793569000 1 080 Rx d 2 B0 09
3.804297400 1 100 Rx d 2 64 00
3.814603600 1 080 Rx d 2 BA 09
3.825317600 1 100 Rx d 2 65 00
3.835833700 1 080 Rx d 2 C4 09
3.846398900 1 100 Rx d 2 66 00
3.856859900 1 080 Rx d 2 CE 09
3.867304900 1 100 Rx d 2 67 00
3.877977300 1 080 Rx d 2 D8 09
3.888210200 1 100 Rx d 2 68 00
3.898487800 1 080 Rx d 2 E2 09
3.909080300 1 080 Rx d 2 EC 09
3.919718700 1 100 Rx d 2 69 00
3.930556700 1 100 Rx d 2 6A 00
3.940977800 1 080 Rx d 2 F6 09
3.951674800 1 100 Rx d 2 6B 00
3.962244200 1 080 Rx d 2 00 0A
3.972602100 1 080 Rx d 2 0A 0A
3.983045500 1 100 Rx d 2 6C 00
3.993741200 1 080 Rx d 2 14 0A
4.004771300 1 100 Rx d 2 6D 00
4.015060100 1 100 Rx d 2 6E 00
4.025747200 1 080 Rx d 2 1E 0A
4.036484000 1 100 Rx d 2 6F 00
4.046866000 1 080 Rx d 2 28 0A
4.057323600 1 080 Rx d 2 32 0A
4.067609100 1 100 Rx d 2 70 00
4.078572200 1 080 Rx d 2 3C 0A
4.089247100 1 100 Rx d 2 71 00
4.099723800 1 100 Rx d 2 72 00
4.110490200 1 080 Rx d 2 46 0A
4.121118000 1 100 Rx d 2 73 00
4.131880700 1 080 Rx d 2 50 0A
4.142118900 1 100 Rx d 2 74 00
4.152884000 1 080 Rx d 2 5A 0A
4.163534700 1 100 Rx d 2 75 00
4.173978100 1 080 Rx d 2 64 0A
4.184446200 1 100 Rx d 2 76 00
4.194793300 1 080 Rx d 2 6E 0A
4.206133100 1 100 Rx d 2 77 00
4.216519500 1 080 Rx d 2 78 0A
4.227236500 1 100 Rx d 2 78 00
4.237731700 1 080 Rx d 2 82 0A
4.248455000 1 100 Rx d 2 32 00
4.259242800 1 080 Rx d 2 8C 0A
4.269974700 1 100 Rx d 2 33 00
4.280600300 1 080 Rx d 2 96 0A
4.291379900 1 100 Rx d 2 34 00
4.301858800 1 080 Rx d 2 A0 0A
4.312611200 1 100 Rx d 2 35 00
4.323135500 1 080 Rx d 2 AA 0A
4.333755600 1 080 Rx d 2 B4 0A
4.344107900 1 100 Rx d 2 36 00
4.354961100 1 080 Rx d 2 BE 0A
4.365584500 1 100 Rx d 2 37 00
4.376006600 1 100 Rx d 2 38 00
4.386449500 1 080 Rx d 2 C8 0A
4.396917100 1 100 Rx d 2 39 00
4.407463400 1 080 Rx d 2 D2 0A
4.417897900 1 100 Rx d 2 3A 00
4.428469900 1 080 Rx d 2 DC 0A
4.439261100 1 100 Rx d 2 3B 00
4.449914900 1 080 Rx d 2 E6 0A
4.460573900 1 100 Rx d 2 3C 00
4.470975700 1 080 Rx d 2 F0 0A
4.481555800 1 100 Rx d 2 3D 00
4.492286100 1 080 Rx d 2 FA 0A
4.503024000 1 080 Rx d 2 04 0B
4.513451900 1 100 Rx d 2 3E 00
4.523854200 1 100 Rx d 2 3F 00
4.534559800 1 080 Rx d 2 0E 0B
4.545173000 1 100 Rx d 2 40 00
4.555739300 1 080 Rx d 2 18 0B
4.566545500 1 100 Rx d 2 41 00
4.576947800 1 080 Rx d 2 22 0B
4.587510600 1 080 Rx d 2 2C 0B
4.597894900 1 100 Rx d 2 42 00
4.608517000 1 100 Rx d 2 43 00
4.618989800 1 080 Rx d 2 36 0B
4.629552300 1 080 Rx d 2 40 0B
4.640044000 1 100 Rx d 2 44 00
4.650401500 1 100 Rx d 2 45 00
4.660967700 1 080 Rx d 2 4A 0B
4.671391200 1 100 Rx d 2 46 00
4.681803300 1 080 Rx d 2 54 0B
4.692490700 1 100 Rx d 2 47 00
4.702978900 1 080 Rx d 2 5E 0B
4.713429600 1 100 Rx d 2 48 00
4.724248000 1 080 Rx d 2 68 0B
4.734691800 1 080 Rx d 2 72 0B
4.745005600 1 100 Rx d 2 49 00
4.755883300 1 100 Rx d 2 4A 00
4.766283300 1 080 Rx d 2 7C 0B
4.777051300 1 100 Rx d 2 4B 00
4.787706800 1 080 Rx d 2 86 0B
4.798174400 1 100 Rx d 2 4C 00
4.808632300 1 080 Rx d 2 90 0B
4.819250500 1 100 Rx d 2 4D 00
4.830070400 1 080 Rx d 2 9A 0B
4.840402000 1 080 Rx d 2 A4 0B
4.851004100 1 100 Rx d 2 4E 00
4.861641600 1 100 Rx d 2 4F 00
4.872320600 1 080 Rx d 2 AE 0B
4.883115800 1 100 Rx d 2 50 00
4.893319700 1 080 Rx d 2 B8 0B
4.903878100 1 100 Rx d 2 51 00
4.914439600 1 080 Rx d 2 C2 0B
4.925062500 1 080 Rx d 2 CC 0B
4.935604100 1 100 Rx d 2 52 00
4.946219000 1 080 Rx d 2 D6 0B
4.956729300 1 100 Rx d 2 53 00
4.967457300 1 100 Rx d 2 54 00
4.978062200 1 080 Rx d 2 E0 0B
4.988753200 1 100 Rx d 2 55 00
4.999295100 1 080 Rx d 2 EA 0B
5.010037700 1 100 Rx d 2 56 00
5.020881800 1 080 Rx d 2 F4 0B
5.031457200 1 100 Rx d 2 57 00
5.042023200 1 080 Rx d 2 FE 0B
5.052606500 1 100 Rx d 2 58 00
5.063083200 1 080 Rx d 2 08 0C
5.073546800 1 100 Rx d 2 59 00
5.083880800 1 080 Rx d 2 12 0C
5.094535700 1 100 Rx d 2 5A 00
5.104958000 1 080 Rx d 2 1C 0C
5.115514700 1 100 Rx d 2 5B 00
5.126539300 1 080 Rx d 2 26 0C
5.137325900 1 080 Rx d 2 30 0C
5.147827300 1 100 Rx d 2 5C 00
5.158280500 1 700 Rx d 1 19
5.168821100 1 080 Rx d 2 3A 0C
5.179427800 1 100 Rx d 2 5D 00
5.190043200 1 100 Rx d 2 5E 00
5.200642300 1 080 Rx d 2 44 0C
5.211267000 1 100 Rx d 2 5F 00
5.221974300 1 080 Rx d 2 4E 0C
5.232634700 1 100 Rx d 2 60 00
5.243189000 1 080 Rx d 2 58 0C
5.253729600 1 100 Rx d 2 61 00
5.264619600 1 080 Rx d 2 62 0C
5.274804600 1 100 Rx d 2 62 00
5.285911800 1 080 Rx d 2 6C 0C
5.296530100 1 100 Rx d 2 63 00
5.307489700 1 080 Rx d 2 76 0C
5.322756300 1 100 Rx d 2 64 00
5.335434000 1 080 Rx d 2 80 0C
5.345799700 1 100 Rx d 2 65 00
5.356132100 1 080 Rx d 2 8A 0C
5.366616300 1 100 Rx d 2 66 00
5.377344600 1 080 Rx d 2 94 0C
5.387852900 1 700 Rx d 1 1A
5.398424800 1 100 Rx d 2 67 00
5.409065400 1 080 Rx d 2 9E 0C
5.419684700 1 080 Rx d 2 A8 0C
5.430581000 1 100 Rx d 2 68 00
5.441326500 1 100 Rx d 2 69 00
5.451657100 1 080 Rx d 2 B2 0C
5.461931800 1 080 Rx d 2 BC 0C
5.472431100 1 100 Rx d 2 6A 00
5.482953500 1 080 Rx d 2 C6 0C
5.493503200 1 100 Rx d 2 6B 00
5.504110600 1 100 Rx d 2 6C 00
5.514712100 1 080 Rx d 2 D0 0C
5.525329100 1 100 Rx d 2 6D 00
5.535868700 1 080 Rx d 2 DA 0C
5.546516000 1 100 Rx d 2 6E 00
5.557036700 1 080 Rx d 2 E4 0C
5.567537400 1 100 Rx d 2 6F 00
5.578324000 1 080 Rx d 2 EE 0C
5.588747800 1 100 Rx d 2 70 00
5.599077900 1 080 Rx d 2 F8 0C
5.609572700 1 700 Rx d 1 1B
5.620269700 1 100 Rx d 2 71 00
5.630709000 1 080 Rx d 2 02 0D
5.640986900 1 100 Rx d 2 72 00
5.651497500 1 080 Rx d 2 0C 0D
5.661880100 1 080 Rx d 2 16 0D
5.672416000 1 100 Rx d 2 73 00
5.682928000 1 100 Rx d 2 74 00
5.693105200 1 080 Rx d 2 20 0D
5.703674300 1 080 Rx d 2 2A 0D
5.714314000 1 100 Rx d 2 75 00
5.724688500 1 100 Rx d 2 76 00
5.735243500 1 080 Rx d 2 34 0D
5.745925900 1 100 Rx d 2 77 00
5.756330800 1 080 Rx d 2 3E 0D
5.766522100 1 100 Rx d 2 78 00
5.776847300 1 080 Rx d 2 48 0D
5.788043400 1 100 Rx d 2 32 00
5.798681500 1 080 Rx d 2 52 0D
5.809263400 1 100 Rx d 2 33 00
5.819994500 1 080 Rx d 2 5C 0D
5.830932400 1 700 Rx d 1 1C
5.841746800 1 080 Rx d 2 66 0D
5.852760800 1 100 Rx d 2 34 00
5.863677900 1 100 Rx d 2 35 00
5.874048200 1 080 Rx d 2 70 0D
5.884915500 1 100 Rx d 2 36 00
5.895403700 1 080 Rx d 2 7A 0D
5.906224200 1 080 Rx d 2 84 0D
5.916774500 1 100 Rx d 2 37 00
5.927173500 1 100 Rx d 2 38 00
5.937864900 1 080 Rx d 2 8E 0D
5.948337800 1 080 Rx d 2 98 0D
5.958714700 1 100 Rx d 2 39 00
5.969140500 1 100 Rx d 2 3A 00
5.979549100 1 080 Rx d 2 A2 0D
5.990209200 1 080 Rx d 2 AC 0D
6.000806500 1 100 Rx d 2 3B 00
6.011332300 1 100 Rx d 2 3C 00
6.021928400 1 080 Rx d 2 B6 0D
6.032561600 1 100 Rx d 2 3D 00
6.043421600 1 080 Rx d 2 C0 0D
6.053892800 1 700 Rx d 1 1D
6.064900000 1 100 Rx d 2 3E 00
6.075551300 1 080 Rx d 2 CA 0D
6.086089700 1 100 Rx d 2 3F 00
6.096439800 1 080 Rx d 2 D4 0D
6.107368700 1 100 Rx d 2 40 00
6.118363100 1 080 Rx d 2 DE 0D
6.128899100 1 080 Rx d 2 E8 0D
6.139744000 1 100 Rx d 2 41 00
6.150379500 1 100 Rx d 2 42 00
6.160790300 1 080 Rx d 2 F2 0D
6.171134900 1 100 Rx d 2 43 00
6.181731300 1 080 Rx d 2 FC 0D
6.192238000 1 100 Rx d 2 44 00
6.202892500 1 080 Rx d 2 06 0E
6.213576500 1 100 Rx d 2 45 00
6.224256100 1 080 Rx d 2 10 0E
6.234798900 1 100 Rx d 2 46 00
6.245163000 1 080 Rx d 2 1A 0E
6.256081700 1 100 Rx d 2 47 00
6.266995500 1 080 Rx d 2 24 0E
6.277757900 1 700 Rx d 1 1E
6.288430500 1 100 Rx d 2 48 00
6.298698500 1 080 Rx d 2 2E 0E
6.309014600 1 100 Rx d 2 49 00
6.319810300 1 080 Rx d 2 38 0E
6.330098400 1 100 Rx d 2 4A 00
6.340620400 1 080 Rx d 2 42 0E
6.351250900 1 100 Rx d 2 4B 00
6.361629600 1 080 Rx d 2 4C 0E
6.372072000 1 100 Rx d 2 4C 00
6.382928700 1 080 Rx d 2 56 0E
6.393848700 1 100 Rx d 2 4D 00
6.404994900 1 080 Rx d 2 60 0E
6.415479300 1 080 Rx d 2 6A 0E
6.426446100 1 100 Rx d 2 4E 00
6.437155100 1 100 Rx d 2 4F 00
6.447821400 1 080 Rx d 2 74 0E
6.458718300 1 100 Rx d 2 50 00
6.469598000 1 080 Rx d 2 7E 0E
6.479936800 1 100 Rx d 2 51 00
6.490560400 1 080 Rx d 2 88 0E
6.501040400 1 700 Rx d 1 1F
6.511567200 1 100 Rx d 2 52 00
6.522307000 1 080 Rx d 2 92 0E
6.533336100 1 100 Rx d 2 53 00
6.544190700 1 080 Rx d 2 9C 0E
6.554731200 1 100 Rx d 2 54 00
6.565402800 1 080 Rx d 2 A6 0E
6.576004200 1 100 Rx d 2 55 00
6.586831000 1 080 Rx d 2 B0 0E
6.597420300 1 100 Rx d 2 56 00
6.607654200 1 080 Rx d 2 BA 0E
6.618272000 1 100 Rx d 2 57 00
6.628783900 1 080 Rx d 2 C4 0E
6.639696900 1 100 Rx d 2 58 00
6.650205300 1 080 Rx d 2 CE 0E
6.660743300 1 100 Rx d 2 59 00
6.671344500 1 080 Rx d 2 D8 0E
6.682210500 1 100 Rx d 2 5A 00
6.692713900 1 080 Rx d 2 E2 0E
6.703559200 1 100 Rx d 2 5B 00
6.714050200 1 080 Rx d 2 EC 0E
6.724592300 1 700 Rx d 1 20
6.735370800 1 100 Rx d 2 5C 00
6.746249000 1 080 Rx d 2 F6 0E
6.756963500 1 100 Rx d 2 5D 00
6.767377200 1 080 Rx d 2 00 0F
6.777841400 1 080 Rx d 2 0A 0F
6.788339900 1 100 Rx d 2 5E 00
6.799208300 1 100 Rx d 2 5F 00
6.809979800 1 080 Rx d 2 14 0F
6.820660300 1 100 Rx d 2 60 00
6.831280500 1 080 Rx d 2 1E 0F
6.841497300 1 080 Rx d 2 28 0F
6.851859200 1 100 Rx d 2 61 00
6.862675000 1 080 Rx d 2 32 0F
6.873172000 1 100 Rx d 2 62 00
6.883737600 1 100 Rx d 2 63 00
6.894379700 1 080 Rx d 2 3C 0F
6.904961100 1 100 Rx d 2 64 00
6.915526400 1 080 Rx d 2 46 0F
6.926197100 1 100 Rx d 2 65 00
6.937002700 1 080 Rx d 2 50 0F
6.947617500 1 700 Rx d 1 21
6.958201400 1 100 Rx d 2 66 00
6.968841500 1 080 Rx d 2 5A 0F
6.979410700 1 100 Rx d 2 67 00
6.989881000 1 080 Rx d 2 64 0F
7.000611800 1 080 Rx d 2 6E 0F
7.011185700 1 100 Rx d 2 68 00
7.021840400 1 100 Rx d 2 69 00
7.032771000 1 080 Rx d 2 78 0F
7.043386300 1 100 Rx d 2 6A 00
7.054272100 1 080 Rx d 2 82 0F
7.065027700 1 080 Rx d 2 8C 0F
7.075350100 1 100 Rx d 2 6B 00
7.086294200 1 100 Rx d 2 6C 00
7.097039100 1 080 Rx d 2 96 0F
7.107859800 1 100 Rx d 2 6D 00
7.118938700 1 080 Rx d 2 A0 0F
7.129702900 1 100 Rx d 2 6E 00
7.140233800 1 080 Rx d 2 E8 03
7.150741800 1 100 Rx d 2 6F 00
7.161789200 1 080 Rx d 2 F2 03
7.172937300 1 700 Rx d 1 22
7.183693700 1 100 Rx d 2 70 00
7.194352300 1 080 Rx d 2 FC 03
7.205069800 1 100 Rx d 2 71 00
7.216174400 1 080 Rx d 2 06 04
7.227261600 1 100 Rx d 2 72 00
7.237819900 1 080 Rx d 2 10 04
7.248651500 1 100 Rx d 2 73 00
7.259181600 1 080 Rx d 2 1A 04
7.269826600 1 100 Rx d 2 74 00
7.280495300 1 080 Rx d 2 24 04
7.291361800 1 100 Rx d 2 75 00
7.302276000 1 080 Rx d 2 2E 04
7.312907000 1 100 Rx d 2 76 00
7.323934200 1 080 Rx d 2 38 04
7.334715600 1 080 Rx d 2 42 04
7.345242400 1 100 Rx d 2 77 00
7.356018200 1 100 Rx d 2 78 00
7.366701700 1 080 Rx d 2 4C 04
7.377610300 1 100 Rx d 2 32 00
7.388089500 1 080 Rx d 2 56 04
7.398878200 1 700 Rx d 1 23
7.409987100 1 100 Rx d 2 33 00
7.420773900 1 080 Rx d 2 60 04
7.431324700 1 080 Rx d 2 6A 04
7.442254200 1 100 Rx d 2 34 00
7.453114900 1 080 Rx d 2 74 04
7.463648800 1 100 Rx d 2 35 00
7.474476900 1 100 Rx d 2 36 00
7.485343900 1 080 Rx d 2 7E 04
7.496137700 1 100 Rx d 2 37 00
7.506913500 1 080 Rx d 2 88 04
7.517485000 1 080 Rx d 2 92 04
7.528182400 1 100 Rx d 2 38 00
7.539320600 1 100 Rx d 2 39 00
7.550189900 1 080 Rx d 2 9C 04
7.560806600 1 100 Rx d 2 3A 00
7.571457600 1 080 Rx d 2 A6 04
7.582069200 1 100 Rx d 2 3B 00
7.593017700 1 080 Rx d 2 B0 04
7.603551100 1 100 Rx d 2 3C 00
7.614172800 1 080 Rx d 2 BA 04
7.624809900 1 700 Rx d 1 19
7.635415100 1 100 Rx d 2 3D 00
7.646080400 1 080 Rx d 2 C4 04
7.657055900 1 100 Rx d 2 3E 00
7.667570400 1 080 Rx d 2 CE 04
7.678775800 1 100 Rx d 2 3F 00
7.689481100 1 080 Rx d 2 D8 04
7.700052200 1 080 Rx d 2 E2 04
7.710650900 1 100 Rx d 2 40 00
7.721114800 1 080 Rx d 2 EC 04
7.732132800 1 100 Rx d 2 41 00
7.742629100 1 100 Rx d 2 42 00
7.753634600 1 080 Rx d 2 F6 04
7.764575100 1 100 Rx d 2 43 00
7.775470100 1 080 Rx d 2 00 05
7.786426400 1 100 Rx d 2 44 00
7.796930800 1 080 Rx d 2 0A 05
7.807667600 1 100 Rx d 2 45 00
7.818745300 1 080 Rx d 2 14 05
7.829503100 1 080 Rx d 2 1E 05
7.840423400 1 100 Rx d 2 46 00
7.851375300 1 700 Rx d 1 1A
7.862137300 1 100 Rx d 2 47 00
7.873031500 1 080 Rx d 2 28 05
7.883666400 1 100 Rx d 2 48 00
7.894637200 1 080 Rx d 2 32 05
7.905341500 1 100 Rx d 2 49 00
7.916368700 1 080 Rx d 2 3C 05
7.927088900 1 080 Rx d 2 46 05
7.938073400 1 100 Rx d 2 4A 00
7.948559900 1 080 Rx d 2 50 05
7.959447500 1 100 Rx d 2 4B 00
7.970535300 1 100 Rx d 2 4C 00
7.981284000 1 080 Rx d 2 5A 05
7.991700100 1 100 Rx d 2 4D 00
8.002247500 1 080 Rx d 2 64 05
8.012895100 1 100 Rx d 2 4E 00
8.023998300 1 080 Rx d 2 6E 05
8.034873600 1 100 Rx d 2 4F 00
8.045493900 1 080 Rx d 2 78 05
8.056193900 1 080 Rx d 2 82 05
8.066618300 1 100 Rx d 2 50 00
8.077394400 1 700 Rx d 1 1B
8.088259700 1 100 Rx d 2 51 00
8.098946700 1 080 Rx d 2 8C 05
8.109813200 1 080 Rx d 2 96 05
8.120362200 1 100 Rx d 2 52 00
8.130960200 1 080 Rx d 2 A0 05
8.141397900 1 100 Rx d 2 53 00
8.152314900 1 080 Rx d 2 AA 05
8.162755400 1 100 Rx d 2 54 00
8.173411000 1 100 Rx d 2 55 00
8.184269000 1 080 Rx d 2 B4 05
8.194809000 1 100 Rx d 2 56 00
8.205596400 1 080 Rx d 2 BE 05
8.216344600 1 100 Rx d 2 57 00
8.227038400 1 080 Rx d 2 C8 05
8.238100500 1 100 Rx d 2 58 00
8.249122400 1 080 Rx d 2 D2 05
8.259814900 1 100 Rx d 2 59 00
8.270501400 1 080 Rx d 2 DC 05
8.281124100 1 100 Rx d 2 5A 00
8.291756400 1 080 Rx d 2 E6 05
8.302207800 1 700 Rx d 1 1C
8.312952100 1 100 Rx d 2 5B 00
8.323606000 1 080 Rx d 2 F0 05
8.334546900 1 100 Rx d 2 5C 00
8.345482100 1 080 Rx d 2 FA 05
8.356568300 1 100 Rx d 2 5D 00
8.366999900 1 080 Rx d 2 04 06
8.377752000 1 100 Rx d 2 5E 00
8.388317300 1 080 Rx d 2 0E 06
8.398809500 1 100 Rx d 2 5F 00
8.409888400 1 080 Rx d 2 18 06
8.420645100 1 100 Rx d 2 60 00
8.431188300 1 080 Rx d 2 22 06
8.441922300 1 100 Rx d 2 61 00
8.452671900 1 080 Rx d 2 2C 06
8.463197300 1 100 Rx d 2 62 00
8.474028200 1 080 Rx d 2 36 06
8.484562900 1 100 Rx d 2 63 00
8.495464900 1 080 Rx d 2 40 06
8.506493100 1 100 Rx d 2 64 00
8.517222500 1 080 Rx d 2 4A 06
8.527862000 1 700 Rx d 1 1D
8.538814900 1 100 Rx d 2 65 00
8.549405000 1 080 Rx d 2 54 06
8.559939500 1 100 Rx d 2 66 00
8.570801800 1 080 Rx d 2 5E 06
8.581672100 1 100 Rx d 2 67 00
8.592038600 1 080 Rx d 2 68 06
8.602485600 1 100 Rx d 2 68 00
8.613100800 1 080 Rx d 2 72 06
8.624312400 1 080 Rx d 2 7C 06
8.634863500 1 100 Rx d 2 69 00
8.645676800 1 100 Rx d 2 6A 00
8.656794400 1 080 Rx d 2 86 06
8.667295500 1 100 Rx d 2 6B 00
8.677973400 1 080 Rx d 2 90 06
8.688468700 1 100 Rx d 2 6C 00
8.699306900 1 080 Rx d 2 9A 06
8.710383400 1 100 Rx d 2 6D 00
8.721528100 1 080 Rx d 2 A4 06
8.732461500 1 100 Rx d 2 6E 00
8.743577600 1 080 Rx d 2 AE 06
8.754143300 1 700 Rx d 1 1E
8.764953400 1 100 Rx d 2 6F 00
8.775360600 1 080 Rx d 2 B8 06
8.786226500 1 100 Rx d 2 70 00
8.796654700 1 080 Rx d 2 C2 06
8.807466000 1 100 Rx d 2 71 00
8.818175100 1 080 Rx d 2 CC 06
8.829051900 1 100 Rx d 2 72 00
8.840047400 1 080 Rx d 2 D6 06
8.851029700 1 100 Rx d 2 73 00
8.861769100 1 080 Rx d 2 E0 06
8.872698100 1 080 Rx d 2 EA 06
8.883475300 1 100 Rx d 2 74 00
8.894446800 1 100 Rx d 2 75 00
8.905302600 1 080 Rx d 2 F4 06
8.916148300 1 100 Rx d 2 76 00
8.926894800 1 080 Rx d 2 FE 06
8.937454200 1 080 Rx d 2 08 07
8.948072800 1 100 Rx d 2 77 00
8.958743300 1 080 Rx d 2 12 07
8.969736600 1 100 Rx d 2 78 00
8.980758700 1 700 Rx d 1 1F
8.991561100 1 100 Rx d 2 32 00
9.002514400 1 080 Rx d 2 1C 07
9.012957000 1 100 Rx d 2 33 00
9.023526500 1 080 Rx d 2 26 07
9.034570400 1 100 Rx d 2 34 00
9.045499500 1 080 Rx d 2 30 07
9.056169100 1 100 Rx d 2 35 00
9.066609300 1 080 Rx d 2 3A 07
9.077216500 1 100 Rx d 2 36 00
9.087800500 1 080 Rx d 2 44 07
9.098209800 1 100 Rx d 2 37 00
9.108970900 1 080 Rx d 2 4E 07
9.120142500 1 100 Rx d 2 38 00
9.131080900 1 080 Rx d 2 58 07
9.141833500 1 080 Rx d 2 62 07
9.152874800 1 100 Rx d 2 39 00
9.163636700 1 100 Rx d 2 3A 00
9.174724000 1 080 Rx d 2 6C 07
9.185243100 1 100 Rx d 2 3B 00
9.196170900 1 080 Rx d 2 76 07
9.206940700 1 700 Rx d 1 20
9.217842900 1 100 Rx d 2 3C 00
9.228811700 1 080 Rx d 2 80 07
9.239741200 1 080 Rx d 2 8A 07
9.250833000 1 100 Rx d 2 3D 00
9.262116100 1 100 Rx d 2 3E 00
9.273043600 1 080 Rx d 2 94 07
9.283635500 1 100 Rx d 2 3F 00
9.294643000 1 080 Rx d 2 9E 07
9.305703600 1 100 Rx d 2 40 00
9.316666500 1 080 Rx d 2 A8 07
9.327377400 1 100 Rx d 2 41 00
9.337836700 1 080 Rx d 2 B2 07
9.348922700 1 100 Rx d 2 42 00
9.359696000 1 080 Rx d 2 BC 07
9.370796900 1 100 Rx d 2 43 00
9.381820400 1 080 Rx d 2 C6 07
9.392670300 1 100 Rx d 2 44 00
9.403521200 1 080 Rx d 2 D0 07
9.414276700 1 100 Rx d 2 45 00
9.425269700 1 080 Rx d 2 DA 07
9.436217600 1 700 Rx d 1 21
9.446916200 1 100 Rx d 2 46 00
9.457664900 1 080 Rx d 2 E4 07
9.468307100 1 100 Rx d 2 47 00
9.478895500 1 080 Rx d 2 EE 07
9.490061900 1 100 Rx d 2 48 00
9.500632600 1 080 Rx d 2 F8 07
9.511745200 1 100 Rx d 2 49 00
9.522223400 1 080 Rx d 2 02 08
9.532810600 1 100 Rx d 2 4A 00
9.543247100 1 080 Rx d 2 0C 08
9.553889400 1 100 Rx d 2 4B 00
9.564272800 1 080 Rx d 2 16 08
9.574899200 1 100 Rx d 2 4C 00
9.585857100 1 080 Rx d 2 20 08
9.596763800 1 100 Rx d 2 4D 00
9.607368700 1 080 Rx d 2 2A 08
9.618087400 1 080 Rx d 2 34 08
9.628916500 1 100 Rx d 2 4E 00
9.639982500 1 100 Rx d 2 4F 00
9.651016200 1 080 Rx d 2 3E 08
9.661723400 1 300 Rx d 1 00
9.672729000 1 700 Rx d 1 22
9.683744600 1 100 Rx d 2 50 00
9.694429600 1 080 Rx d 2 48 08
9.705246700 1 300 Rx d 1 01
9.715890900 1 100 Rx d 2 51 00
9.726481600 1 080 Rx d 2 52 08
9.737164300 1 300 Rx d 1 02
9.747876400 1 100 Rx d 2 52 00
9.759010800 1 080 Rx d 2 5C 08
9.769709400 1 300 Rx d 1 03
9.780515200 1 100 Rx d 2 53 00
9.791415900 1 080 Rx d 2 66 08
9.802073000 1 300 Rx d 1 04
9.812785600 1 100 Rx d 2 54 00
9.823757700 1 080 Rx d 2 70 08
9.834327800 1 300 Rx d 1 05
9.845188000 1 100 Rx d 2 55 00
9.856134800 1 080 Rx d 2 7A 08
9.866891900 1 300 Rx d 1 06
9.877565800 1 080 Rx d 2 84 08
9.888123200 1 100 Rx d 2 56 00
9.898743500 1 300 Rx d 1 07
9.909485200 1 100 Rx d 2 57 00
9.920463700 1 080 Rx d 2 8E 08
9.931191300 1 300 Rx d 1 08
9.942231600 1 080 Rx d 2 98 08
9.953106800 1 100 Rx d 2 58 00
9.963999900 1 300 Rx d 1 09
9.974918900 1 100 Rx d 2 59 00
9.985582700 1 080 Rx d 2 A2 08
9.996187800 1 700 Rx d 1 23
10.006715200 1 080 Rx d 2 AC 08
10.017531800 1 100 Rx d 2 5A 00
10.028241800 1 300 Rx d 1 0A
10.039137900 1 080 Rx d 2 B6 08
10.049924500 1 100 Rx d 2 5B 00
10.060637800 1 300 Rx d 1 0B
10.071234500 1 080 Rx d 2 C0 08
10.082217000 1 100 Rx d 2 5C 00
10.092724300 1 300 Rx d 1 0C
10.103477400 1 100 Rx d 2 5D 00
10.114051800 1 080 Rx d 2 CA 08
10.124537200 1 100 Rx d 2 5E 00
10.135320900 1 300 Rx d 1 0D
10.146181100 1 080 Rx d 2 D4 08
10.156859800 1 100 Rx d 2 5F 00
10.167527600 1 080 Rx d 2 DE 08
10.178336800 1 300 Rx d 1 0E
10.189088100 1 100 Rx d 2 60 00
10.199904500 1 080 Rx d 2 E8 08
10.210782700 1 300 Rx d 1 0F
10.221687700 1 100 Rx d 2 61 00
10.232622900 1 080 Rx d 2 F2 08
10.243168000 1 300 Rx d 1 10
10.253933900 1 100 Rx d 2 62 00
10.264826100 1 080 Rx d 2 FC 08
10.275775900 1 300 Rx d 1 11
10.286297700 1 080 Rx d 2 06 09
10.297161800 1 100 Rx d 2 63 00
10.307633600 1 300 Rx d 1 12
10.318591800 1 700 Rx d 1 19
10.329177200 1 100 Rx d 2 64 00
10.339906900 1 080 Rx d 2 10 09
10.350518400 1 300 Rx d 1 13
10.361031900 1 100 Rx d 2 65 00
10.371786300 1 080 Rx d 2 1A 09
10.382278800 1 100 Rx d 2 66 00
10.392968300 1 080 Rx d 2 24 09
10.403743700 1 300 Rx d 1 14
10.414542800 1 100 Rx d 2 67 00
10.425026400 1 080 Rx d 2 2E 09
10.435644200 1 300 Rx d 1 15
10.446248900 1 080 Rx d 2 38 09
10.457012000 1 100 Rx d 2 68 00
10.467601700 1 300 Rx d 1 16
10.478409800 1 100 Rx d 2 69 00
10.489239400 1 080 Rx d 2 42 09
10.500115400 1 300 Rx d 1 17
10.511024600 1 100 Rx d 2 6A 00
10.521692100 1 080 Rx d 2 4C 09
10.532178600 1 300 Rx d 1 18
10.543214800 1 080 Rx d 2 56 09
10.553898900 1 100 Rx d 2 6B 00
10.564761800 1 300 Rx d 1 19
10.575762400 1 080 Rx d 2 60 09
10.586887800 1 100 Rx d 2 6C 00
10.597494900 1 300 Rx d 1 1A
10.607971200 1 700 Rx d 1 1A
10.618771100 1 100 Rx d 2 6F 00
10.629725100 1 080 Rx d 2 88 09
10.640376300 1 100 Rx d 2 71 00
10.651017700 1 100 Rx d 2 72 00
10.661870900 1 100 Rx d 2 73 00
10.672907300 1 100 Rx d 2 74 00
10.683525500 1 100 Rx d 2 75 00
10.694490600 1 100 Rx d 2 76 00
10.705197500 1 100 Rx d 2 77 00
10.715992500 1 100 Rx d 2 78 00
10.726903000 1 100 Rx d 2 32 00
10.737698600 1 100 Rx d 2 33 00
10.748635000 1 100 Rx d 2 34 00
10.759611400 1 100 Rx d 2 35 00
10.770596900 1 080 Rx d 2 0A 0A
10.781251800 1 300 Rx d 1 29
10.791964700 1 080 Rx d 2 28 0A
10.802945100 1 100 Rx d 2 3A 00
10.813510100 1 700 Rx d 1 1C
10.824346800 1 100 Rx d 2 3C 00
10.835278500 1 100 Rx d 2 3D 00
10.845835400 1 080 Rx d 2 5A 0A
10.856764300 1 080 Rx d 2 64 0A
10.867343300 1 100 Rx d 2 40 00
10.877961200 1 100 Rx d 2 41 00
10.888704500 1 100 Rx d 2 42 00
10.899242600 1 080 Rx d 2 8C 0A
10.909745200 1 080 Rx d 2 96 0A
10.920444600 1 300 Rx d 1 34
10.931462600 1 300 Rx d 1 35
10.942319600 1 080 Rx d 2 B4 0A
10.952806300 1 300 Rx d 1 37
10.963408400 1 300 Rx d 1 38
10.974120500 1 300 Rx d 1 39
10.984749000 1 300 Rx d 1 3A
10.995457100 1 300 Rx d 1 3B
11.006349000 1 100 Rx d 2 4E 00
11.016752200 1 300 Rx d 1 3C
11.027723300 1 300 Rx d 1 3D
11.038780900 1 300 Rx d 1 3E
11.049365700 1 300 Rx d 1 3F
11.060050000 1 300 Rx d 1 40
11.070669500 1 300 Rx d 1 41
11.081536300 1 300 Rx d 1 42
11.092162500 1 080 Rx d 2 4A 0B
11.102838100 1 300 Rx d 1 44
11.113836600 1 300 Rx d 1 45
11.124914300 1 100 Rx d 2 5A 00
11.135940500 1 100 Rx d 2 5B 00
11.146642600 1 300 Rx d 1 47
11.223832700 1 300 Rx d 1 48
11.234235200 1 300 Rx d 1 49
11.244825500 1 300 Rx d 1 4A
11.255545500 1 300 Rx d 1 4B
11.266376100 1 300 Rx d 1 4C
11.276656600 1 300 Rx d 1 4D
11.287289900 1 300 Rx d 1 4E
11.304145700 1 300 Rx d 1 4F
11.339774400 1 080 Rx d 2 E0 0B
11.362731600 1 300 Rx d 1 50
11.373547600 1 100 Rx d 2 67 00
11.384075400 1 300 Rx d 1 52
11.395236600 1 300 Rx d 1 53
11.405712700 1 300 Rx d 1 54
11.416179200 1 300 Rx d 1 55
11.426821400 1 300 Rx d 1 56
11.437570100 1 300 Rx d 1 57
11.448659000 1 300 Rx d 1 58
11.459182100 1 300 Rx d 1 59
11.469893600 1 100 Rx d 2 71 00
11.480729900 1 300 Rx d 1 5A
11.491312200 1 300 Rx d 1 5B
11.501696500 1 100 Rx d 2 74 00
11.512104600 1 100 Rx d 2 75 00
11.523094500 1 100 Rx d 2 76 00
11.534216600 1 100 Rx d 2 77 00
11.545247500 1 100 Rx d 2 78 00
11.556102200 1 300 Rx d 1 61
11.567120400 1 300 Rx d 1 62
11.577789800 1 300 Rx d 1 63
11.588698600 1 080 Rx d 2 D0 0C
11.599726700 1 300 Rx d 1 64
11.610549500 1 300 Rx d 1 65
11.621151000 1 300 Rx d 1 66
11.631970400 1 700 Rx d 1 23
11.643077300 1 300 Rx d 1 68
11.653944200 1 300 Rx d 1 69
11.664691400 1 100 Rx d 2 3D 00
11.675471100 1 080 Rx d 2 20 0D
11.686360900 1 100 Rx d 2 3F 00
11.697192200 1 100 Rx d 2 40 00
11.708047600 1 080 Rx d 2 3E 0D
11.718659300 1 300 Rx d 1 6E
11.729599200 1 300 Rx d 1 6F
11.740368500 1 300 Rx d 1 70
11.750992900 1 300 Rx d 1 71
11.761573700 1 300 Rx d 1 72
11.772282400 1 300 Rx d 1 73
11.783051300 1 300 Rx d 1 74
11.793790700 1 300 Rx d 1 75
11.804783800 1 300 Rx d 1 76
11.815668900 1 300 Rx d 1 77
11.826724000 1 100 Rx d 2 4D 00
11.837522700 1 100 Rx d 2 4E 00
11.848427900 1 100 Rx d 2 4F 00
11.859175000 1 080 Rx d 2 D4 0D
11.869988600 1 300 Rx d 1 7B
11.880950500 1 300 Rx d 1 7C
11.891766700 1 300 Rx d 1 7D
11.902537800 1 300 Rx d 1 7E
11.913263200 1 300 Rx d 1 7F
11.924010100 1 300 Rx d 1 80
11.934697200 1 300 Rx d 1 81
11.946047000 1 100 Rx d 2 59 00
11.956873000 1 100 Rx d 2 5A 00
11.968004900 1 100 Rx d 2 5B 00
11.978762000 1 100 Rx d 2 5C 00
11.989774900 1 080 Rx d 2 56 0E
12.000618400 1 300 Rx d 1 86
12.011415100 1 300 Rx d 1 87
12.022093400 1 300 Rx d 1 88
12.032619700 1 700 Rx d 1 1C
12.043293100 1 300 Rx d 1 8A
12.053904000 1 300 Rx d 1 8B
12.064308500 1 100 Rx d 2 65 00
12.075155200 1 100 Rx d 2 66 00
12.085748700 1 080 Rx d 2 BA 0E
12.096572800 1 100 Rx d 2 68 00
12.107425300 1 080 Rx d 2 CE 0E
12.118078300 1 080 Rx d 2 D8 0E
12.128794000 1 100 Rx d 2 6B 00
12.139607900 1 300 Rx d 1 92
12.150417200 1 300 Rx d 1 93
12.161113200 1 300 Rx d 1 94
12.172035600 1 300 Rx d 1 95
12.182873000 1 100 Rx d 2 71 00
12.193480700 1 100 Rx d 2 72 00
12.204218700 1 100 Rx d 2 73 00
12.214595800 1 100 Rx d 2 74 00
12.225036200 1 100 Rx d 2 75 00
12.235836100 1 080 Rx d 2 50 0F
12.246612300 1 080 Rx d 2 5A 0F
12.257133700 1 080 Rx d 2 64 0F
12.267812100 1 080 Rx d 2 6E 0F
12.278726800 1 100 Rx d 2 33 00
12.289447900 1 300 Rx d 1 9F
12.300405000 1 100 Rx d 2 36 00
12.310998300 1 300 Rx d 1 A0
12.321953200 1 300 Rx d 1 A1
12.332765200 1 700 Rx d 1 1F
12.343380200 1 080 Rx d 2 FC 03
12.353923200 1 080 Rx d 2 06 04
12.364725000 1 100 Rx d 2 3C 00
12.375765100 1 100 Rx d 2 3D 00
12.386569200 1 080 Rx d 2 24 04
12.397014700 1 100 Rx d 2 3F 00
12.407632300 1 080 Rx d 2 38 04
12.418604400 1 100 Rx d 2 41 00
12.429431500 1 700 Rx d 1 20
12.440100300 1 300 Rx d 1 AB
12.450715500 1 300 Rx d 1 AC
12.461524200 1 300 Rx d 1 AD
12.471960900 1 100 Rx d 2 47 00
12.482336400 1 080 Rx d 2 88 04
12.493203400 1 100 Rx d 2 49 00
12.504236200 1 100 Rx d 2 4A 00
12.514950300 1 080 Rx d 2 A6 04
12.525770100 1 080 Rx d 2 B0 04
12.536580600 1 100 Rx d 2 4D 00
12.547299400 1 100 Rx d 2 4E 00
12.558195800 1 300 Rx d 1 B5
12.569119100 1 300 Rx d 1 B6
12.579897500 1 300 Rx d 1 B7
12.590594400 1 100 Rx d 2 53 00
12.601381900 1 080 Rx d 2 00 05
12.611896800 1 100 Rx d 2 55 00
12.622829700 1 100 Rx d 2 56 00
12.633696100 1 100 Rx d 2 57 00
12.644630200 1 100 Rx d 2 58 00
12.655578800 1 100 Rx d 2 59 00
12.666216000 1 100 Rx d 2 5A 00
12.677365000 1 100 Rx d 2 5B 00
12.687852300 1 080 Rx d 2 50 05
12.698354400 1 300 Rx d 1 C1
12.708897200 1 300 Rx d 1 C2
12.719730200 1 300 Rx d 1 C3
12.730431100 1 700 Rx d 1 23
12.741709700 1 100 Rx d 2 62 00
12.752664200 1 100 Rx d 2 63 00
12.763382500 1 100 Rx d 2 64 00
12.774305100 1 100 Rx d 2 65 00
12.784913600 1 080 Rx d 2 B4 05
12.795705800 1 080 Rx d 2 BE 05
12.806359000 1 100 Rx d 2 68 00
12.817197800 1 100 Rx d 2 69 00
12.827749300 1 100 Rx d 2 6A 00
12.838453800 1 100 Rx d 2 6B 00
12.849157300 1 100 Rx d 2 6C 00
12.860187100 1 100 Rx d 2 6E 00
12.870786500 1 100 Rx d 2 6F 00
12.881472500 1 100 Rx d 2 70 00
12.892145100 1 100 Rx d 2 71 00
12.903082800 1 080 Rx d 2 2C 06
12.913799500 1 100 Rx d 2 73 00
12.924866000 1 100 Rx d 2 74 00
12.935835400 1 100 Rx d 2 75 00
12.946554900 1 100 Rx d 2 76 00
12.957728600 1 300 Rx d 1 D6
12.968490800 1 300 Rx d 1 D7
12.978948000 1 300 Rx d 1 D8
12.989879800 1 100 Rx d 2 33 00
13.000378900 1 300 Rx d 1 DA
13.010927300 1 300 Rx d 1 DB
13.021957500 1 100 Rx d 2 37 00
13.032911300 1 300 Rx d 1 DC
13.043559200 1 300 Rx d 1 DD
13.054584400 1 300 Rx d 1 DE
13.065286200 1 300 Rx d 1 DF
13.075893600 1 300 Rx d 1 E0
13.086371700 1 300 Rx d 1 E1
13.097164900 1 300 Rx d 1 E2
13.107915600 1 100 Rx d 2 3F 00
13.119002900 1 080 Rx d 2 FE 06
13.129580100 1 080 Rx d 2 08 07
13.140504800 1 100 Rx d 2 42 00
13.151424300 1 300 Rx d 1 E6
13.162255000 1 300 Rx d 1 E7
13.173082500 1 300 Rx d 1 E8
13.183501800 1 300 Rx d 1 E9
13.194369200 1 300 Rx d 1 EA
13.205109800 1 300 Rx d 1 EB
13.215566400 1 300 Rx d 1 EC
13.226755300 1 300 Rx d 1 ED
13.237355800 1 300 Rx d 1 EE
13.248043700 1 080 Rx d 2 80 07
13.258941000 1 100 Rx d 2 4E 00
13.269888600 1 100 Rx d 2 4F 00
13.280390400 1 100 Rx d 2 50 00
13.291203900 1 080 Rx d 2 A8 07
13.301939700 1 300 Rx d 1 F3
13.312357700 1 300 Rx d 1 F4
13.322827800 1 300 Rx d 1 F5
13.333513400 1 700 Rx d 1 1E
13.344102400 1 300 Rx d 1 F7
13.354871800 1 080 Rx d 2 EE 07
13.365359200 1 100 Rx d 2 59 00
13.375896200 1 080 Rx d 2 02 08
13.386764000 1 100 Rx d 2 5B 00
13.397840600 1 100 Rx d 2 5C 00
13.408381800 1 100 Rx d 2 5D 00
13.419116100 1 080 Rx d 2 2A 08
13.429592600 1 700 Rx d 1 1F
13.440254900 1 300 Rx d 1 FF
13.450842300 1 300 Rx d 1 00
13.461440000 1 300 Rx d 1 01
13.472166800 1 300 Rx d 1 02
13.482625800 1 100 Rx d 2 65 00
13.493115400 1 080 Rx d 2 7A 08
13.503932700 1 100 Rx d 2 67 00
13.514397400 1 100 Rx d 2 68 00
13.525083400 1 080 Rx d 2 98 08
13.535894200 1 100 Rx d 2 6A 00
13.546592000 1 100 Rx d 2 6B 00
13.557181100 1 300 Rx d 1 09
13.568212300 1 300 Rx d 1 0A
13.578954600 1 300 Rx d 1 0B
13.589970700 1 300 Rx d 1 0C
13.600920600 1 100 Rx d 2 71 00
13.611490500 1 100 Rx d 2 72 00
13.622599700 1 100 Rx d 2 73 00
13.633302300 1 080 Rx d 2 06 09
13.644092700 1 100 Rx d 2 75 00
13.654672500 1 100 Rx d 2 76 00
13.665091900 1 080 Rx d 2 24 09
13.675444100 1 100 Rx d 2 78 00
13.685938100 1 100 Rx d 2 32 00
13.696435100 1 300 Rx d 1 15
13.707061600 1 300 Rx d 1 16
13.717920700 1 100 Rx d 2 36 00
13.728191400 1 700 Rx d 1 22
13.738674600 1 100 Rx d 2 38 00
13.749150200 1 100 Rx d 2 39 00
13.759653800 1 100 Rx d 2 3A 00
13.770246600 1 080 Rx d 2 92 09
13.780912800 1 100 Rx d 2 3C 00
13.791357800 1 100 Rx d 2 3D 00
13.801728200 1 100 Rx d 2 3E 00
13.812077800 1 080 Rx d 2 BA 09
13.822750100 1 080 Rx d 2 C4 09
13.833115300 1 100 Rx d 2 42 00
13.843645200 1 100 Rx d 2 43 00
13.854308200 1 100 Rx d 2 44 00
13.864590800 1 100 Rx d 2 45 00
13.875112300 1 100 Rx d 2 46 00
13.885725400 1 100 Rx d 2 47 00
13.896120100 1 100 Rx d 2 48 00
13.906606700 1 100 Rx d 2 49 00
13.917037800 1 080 Rx d 2 28 0A
13.927582300 1 080 Rx d 2 32 0A
13.938111400 1 100 Rx d 2 4C 00
13.948696000 1 100 Rx d 2 4E 00
13.959276100 1 100 Rx d 2 4F 00
13.969749100 1 100 Rx d 2 50 00
13.980374800 1 080 Rx d 2 6E 0A
13.990762400 1 100 Rx d 2 52 00
14.001405700 1 080 Rx d 2 82 0A
14.011849300 1 100 Rx d 2 54 00
14.022337300 1 080 Rx d 2 96 0A
14.032823700 1 080 Rx d 2 A0 0A
14.043394100 1 100 Rx d 2 57 00
14.053982400 1 100 Rx d 2 58 00
14.064582100 1 100 Rx d 2 5A 00
14.075037500 1 100 Rx d 2 5B 00
14.085505100 1 100 Rx d 2 5C 00
14.096375600 1 080 Rx d 2 E6 0A
14.107009800 1 080 Rx d 2 F0 0A
14.117498700 1 300 Rx d 1 38
14.127947700 1 300 Rx d 1 39
14.138330900 1 300 Rx d 1 3A
14.148815800 1 300 Rx d 1 3B
14.159429600 1 300 Rx d 1 3C
14.169833800 1 300 Rx d 1 3D
14.180328000 1 100 Rx d 2 65 00
14.190791900 1 100 Rx d 2 66 00
14.201578800 1 100 Rx d 2 67 00
14.212198700 1 080 Rx d 2 54 0B
14.222993300 1 300 Rx d 1 41
14.233456900 1 300 Rx d 1 42
14.243914100 1 300 Rx d 1 43
14.254660700 1 300 Rx d 1 44
14.265410700 1 300 Rx d 1 45
14.276294000 1 300 Rx d 1 46
14.286748200 1 300 Rx d 1 47
14.297050000 1 300 Rx d 1 48
14.307830000 1 100 Rx d 2 72 00
14.318585000 1 080 Rx d 2 C2 0B
14.329109800 1 100 Rx d 2 74 00
14.339669500 1 300 Rx d 1 4B
14.350185500 1 300 Rx d 1 4C
14.360560600 1 300 Rx d 1 4D
14.371157400 1 300 Rx d 1 4E
14.381588700 1 300 Rx d 1 4F
14.391990700 1 300 Rx d 1 50
14.402868800 1 300 Rx d 1 51
14.413492000 1 300 Rx d 1 52
14.424037600 1 300 Rx d 1 53
14.434779800 1 080 Rx d 2 3A 0C
14.445302900 1 100 Rx d 2 39 00
14.455880300 1 080 Rx d 2 4E 0C
14.466207500 1 100 Rx d 2 3B 00
14.476875900 1 080 Rx d 2 62 0C
14.487240200 1 300 Rx d 1 58
14.497747900 1 300 Rx d 1 59
14.508265100 1 700 Rx d 1 1F
14.519026800 1 300 Rx d 1 5B
14.529455900 1 300 Rx d 1 5C
14.540113200 1 300 Rx d 1 5D
14.550439800 1 100 Rx d 2 44 00
14.561211800 1 100 Rx d 2 45 00
14.571980900 1 100 Rx d 2 46 00
14.582727200 1 100 Rx d 2 47 00
14.593687500 1 080 Rx d 2 DA 0C
14.604437200 1 080 Rx d 2 E4 0C
14.615221500 1 300 Rx d 1 63
14.626248000 1 300 Rx d 1 64
14.637131600 1 300 Rx d 1 65
14.647544500 1 300 Rx d 1 66
14.657827300 1 300 Rx d 1 67
14.668236900 1 100 Rx d 2 50 00
14.678637300 1 300 Rx d 1 68
14.689079300 1 300 Rx d 1 69
14.699745400 1 300 Rx d 1 6A
14.710296100 1 100 Rx d 2 54 00
14.721105300 1 100 Rx d 2 55 00
14.731638800 1 100 Rx d 2 56 00
14.742193200 1 080 Rx d 2 70 0D
14.752742400 1 100 Rx d 2 58 00
14.763370000 1 300 Rx d 1 70
14.773984700 1 300 Rx d 1 71
14.784788500 1 100 Rx d 2 5C 00
14.795459500 1 300 Rx d 1 72
14.806238300 1 700 Rx d 1 22
14.816985600 1 080 Rx d 2 C0 0D
14.827609400 1 100 Rx d 2 60 00
14.838190700 1 100 Rx d 2 61 00
14.848620200 1 100 Rx d 2 62 00
14.859032800 1 100 Rx d 2 63 00
14.869786100 1 100 Rx d 2 64 00
14.880203800 1 100 Rx d 2 65 00
14.890692400 1 080 Rx d 2 06 0E
14.901124400 1 700 Rx d 1 23
14.911614000 1 300 Rx d 1 7C
14.922199500 1 300 Rx d 1 7D
14.932519600 1 300 Rx d 1 7E
14.943400700 1 300 Rx d 1 7F
14.953848100 1 100 Rx d 2 6D 00
14.964425300 1 100 Rx d 2 6E 00
14.974991000 1 100 Rx d 2 6F 00
14.985411000 1 100 Rx d 2 70 00
14.995852500 1 100 Rx d 2 71 00
15.006333700 1 100 Rx d 2 72 00
15.016795800 1 100 Rx d 2 73 00
15.027587300 1 100 Rx d 2 74 00
15.038549000 1 100 Rx d 2 75 00
15.049243000 1 080 Rx d 2 A6 0E
15.059771900 1 100 Rx d 2 78 00
15.070299900 1 080 Rx d 2 C4 0E
15.080890300 1 100 Rx d 2 33 00
15.091512600 1 300 Rx d 1 8B
15.101806200 1 300 Rx d 1 8C
15.112306600 1 300 Rx d 1 8D
15.122692100 1 300 Rx d 1 8E
15.133313000 1 300 Rx d 1 8F
15.144261000 1 100 Rx d 2 39 00
15.154712800 1 300 Rx d 1 90
15.165609300 1 300 Rx d 1 91
15.176169000 1 300 Rx d 1 92
15.186808700 1 100 Rx d 2 3D 00
15.197429900 1 300 Rx d 1 94
15.208335000 1 300 Rx d 1 95
15.218817900 1 300 Rx d 1 96
15.229525200 1 300 Rx d 1 97
15.239941600 1 300 Rx d 1 98
15.250596800 1 300 Rx d 1 99
15.261158700 1 100 Rx d 2 45 00
15.271659200 1 300 Rx d 1 9A
15.282300500 1 300 Rx d 1 9B
15.292840700 1 300 Rx d 1 9C
15.303283500 1 100 Rx d 2 49 00
15.313801300 1 100 Rx d 2 4A 00
15.324527500 1 300 Rx d 1 9F
15.335368100 1 300 Rx d 1 A0
15.346064700 1 300 Rx d 1 A1
15.356771900 1 300 Rx d 1 A2
15.367302800 1 300 Rx d 1 A3
15.377838500 1 100 Rx d 2 51 00
15.388448500 1 300 Rx d 1 A4
15.398940800 1 300 Rx d 1 A5
15.409482500 1 300 Rx d 1 A6
15.420257800 1 300 Rx d 1 A7
15.430751300 1 080 Rx d 2 6A 04
15.441420300 1 080 Rx d 2 74 04
15.451963800 1 300 Rx d 1 AA
15.462507800 1 300 Rx d 1 AB
15.473249600 1 300 Rx d 1 AC
15.483838100 1 300 Rx d 1 AD
15.494447100 1 700 Rx d 1 1E
15.505329800 1 300 Rx d 1 AE
15.515986300 1 300 Rx d 1 AF
15.526541400 1 300 Rx d 1 B0
15.537188900 1 100 Rx d 2 61 00
15.547714900 1 100 Rx d 2 62 00
15.558379600 1 100 Rx d 2 63 00
15.568849900 1 100 Rx d 2 64 00
15.579615100 1 080 Rx d 2 00 05
15.590276500 1 100 Rx d 2 66 00
15.600821200 1 080 Rx d 2 14 05
15.611126100 1 100 Rx d 2 69 00
15.621585700 1 300 Rx d 1 B8
15.632145000 1 300 Rx d 1 B9
15.642710900 1 300 Rx d 1 BA
15.653505200 1 100 Rx d 2 6D 00
15.664093000 1 100 Rx d 2 6E 00
15.674676900 1 100 Rx d 2 6F 00
15.685101100 1 100 Rx d 2 70 00
15.695749900 1 100 Rx d 2 71 00
15.706473800 1 100 Rx d 2 72 00
15.717401600 1 080 Rx d 2 8C 05
15.727914000 1 100 Rx d 2 74 00
15.738443600 1 080 Rx d 2 A0 05
15.749103900 1 300 Rx d 1 C3
15.759922400 1 300 Rx d 1 C4
15.770380500 1 100 Rx d 2 32 00
15.780800700 1 100 Rx d 2 39 00
15.791522600 1 080 Rx d 2 18 06
15.802021100 1 300 Rx d 1 C8
15.812584200 1 300 Rx d 1 C9
15.823006500 1 300 Rx d 1 CA
15.833600200 1 300 Rx d 1 CB
15.843820400 1 100 Rx d 2 3F 00
15.854285400 1 300 Rx d 1 CC
15.864587700 1 080 Rx d 2 86 06
15.875159700 1 080 Rx d 2 9A 06
15.885774200 1 100 Rx d 2 48 00
15.896369800 1 080 Rx d 2 AE 06
15.907040400 1 100 Rx d 2 4B 00
15.917745400 1 300 Rx d 1 D2
15.928160100 1 300 Rx d 1 D3
15.938772700 1 300 Rx d 1 D4
15.949164500 1 300 Rx d 1 D5
15.959663200 1 100 Rx d 2 50 00
15.970144500 1 300 Rx d 1 D6
15.981113500 1 300 Rx d 1 D7
15.991501600 1 300 Rx d 1 D8
16.002174500 1 300 Rx d 1 D9
16.012600700 1 300 Rx d 1 DA
16.023169500 1 300 Rx d 1 DB
16.033835400 1 100 Rx d 2 57 00
16.044420500 1 300 Rx d 1 DD
16.054900200 1 300 Rx d 1 DE
16.065416000 1 300 Rx d 1 DF
16.075719500 1 700 Rx d 1 1A
16.086309000 1 300 Rx d 1 E0
16.096706500 1 300 Rx d 1 E1
16.107421500 1 300 Rx d 1 E2
16.118198100 1 300 Rx d 1 E3
16.128642700 1 300 Rx d 1 E4
16.139613000 1 300 Rx d 1 E5
16.150385500 1 300 Rx d 1 E6
16.160931500 1 100 Rx d 2 64 00
16.171593300 1 300 Rx d 1 E8
16.182257900 1 300 Rx d 1 E9
16.192732300 1 100 Rx d 2 68 00
16.203268300 1 300 Rx d 1 EA
16.213776500 1 300 Rx d 1 EB
16.224377900 1 300 Rx d 1 EC
16.234857400 1 300 Rx d 1 ED
16.245246700 1 300 Rx d 1 EE
16.255733900 1 300 Rx d 1 EF
16.266204400 1 300 Rx d 1 F0
16.276669400 1 100 Rx d 2 70 00
16.287054500 1 080 Rx d 2 3E 08
16.297630300 1 100 Rx d 2 72 00
16.308394000 1 100 Rx d 2 74 00
16.318817500 1 300 Rx d 1 F4
16.329052500 1 300 Rx d 1 F5
16.339824000 1 300 Rx d 1 F6
16.350367400 1 300 Rx d 1 F7
16.360807000 1 300 Rx d 1 F8
16.371607000 1 300 Rx d 1 F9
16.382385700 1 300 Rx d 1 FA
16.393325300 1 100 Rx d 2 35 00
16.403855500 1 100 Rx d 2 36 00
16.414360400 1 100 Rx d 2 37 00
16.425165900 1 080 Rx d 2 CA 08
16.435466600 1 300 Rx d 1 FE
16.446092400 1 300 Rx d 1 FF
16.456756500 1 300 Rx d 1 00
16.467486400 1 700 Rx d 1 1E
16.477799000 1 300 Rx d 1 02
16.488446800 1 300 Rx d 1 03
16.498989200 1 300 Rx d 1 04
16.509789900 1 100 Rx d 2 41 00
16.520337000 1 080 Rx d 2 2E 09
16.530798000 1 100 Rx d 2 43 00
16.541251900 1 100 Rx d 2 44 00
16.551753500 1 100 Rx d 2 45 00
16.562274800 1 300 Rx d 1 09
16.572787700 1 300 Rx d 1 0A
16.583113600 1 300 Rx d 1 0B
16.593747300 1 300 Rx d 1 0C
16.604465000 1 300 Rx d 1 0D
16.615030000 1 300 Rx d 1 0E
16.625647400 1 100 Rx d 2 4D 00
16.636180800 1 080 Rx d 2 A6 09
16.646690300 1 100 Rx d 2 4F 00
16.656990900 1 100 Rx d 2 50 00
16.667488500 1 100 Rx d 2 51 00
16.677953600 1 080 Rx d 2 CE 09
16.688671900 1 100 Rx d 2 53 00
16.699232700 1 100 Rx d 2 54 00
16.709689800 1 080 Rx d 2 EC 09
16.720478600 1 300 Rx d 1 17
16.730890000 1 300 Rx d 1 18
16.741574100 1 300 Rx d 1 19
16.752225400 1 100 Rx d 2 5A 00
16.763078000 1 700 Rx d 1 21
16.773650400 1 100 Rx d 2 5C 00
16.784423100 1 080 Rx d 2 3C 0A
16.794984900 1 100 Rx d 2 5E 00
16.805408200 1 100 Rx d 2 5F 00
16.816084900 1 100 Rx d 2 60 00
16.826703300 1 100 Rx d 2 61 00
16.836982100 1 100 Rx d 2 62 00
16.847677100 1 080 Rx d 2 78 0A
16.858469000 1 700 Rx d 1 22
16.869055600 1 300 Rx d 1 24
16.879837800 1 300 Rx d 1 25
16.890417700 1 100 Rx d 2 68 00
16.901148500 1 100 Rx d 2 69 00
16.911830400 1 100 Rx d 2 6A 00
16.922477000 1 100 Rx d 2 6B 00
16.933029600 1 100 Rx d 2 6C 00
16.943778900 1 080 Rx d 2 DC 0A
16.954435500 1 100 Rx d 2 6E 00
16.964896500 1 100 Rx d 2 6F 00
16.975562500 1 100 Rx d 2 70 00
16.986013600 1 080 Rx d 2 04 0B
16.996379500 1 080 Rx d 2 0E 0B
17.006930600 1 100 Rx d 2 74 00
17.017810100 1 100 Rx d 2 75 00
17.028274900 1 100 Rx d 2 76 00
17.038810000 1 100 Rx d 2 77 00
17.049307400 1 080 Rx d 2 4A 0B
17.059661500 1 100 Rx d 2 32 00
17.070153300 1 100 Rx d 2 33 00
17.081041300 1 100 Rx d 2 34 00
17.091480800 1 100 Rx d 2 35 00
17.102232000 1 100 Rx d 2 36 00
17.112744900 1 100 Rx d 2 37 00
17.123353900 1 100 Rx d 2 38 00
17.133931600 1 300 Rx d 1 3A
17.144563700 1 100 Rx d 2 3B 00
17.155047500 1 700 Rx d 1 1A
17.165596100 1 100 Rx d 2 3D 00
17.176354000 1 100 Rx d 2 3E 00
17.187074700 1 100 Rx d 2 3F 00
17.197645500 1 100 Rx d 2 40 00
17.208511800 1 100 Rx d 2 41 00
17.218900100 1 100 Rx d 2 42 00
17.229789800 1 100 Rx d 2 43 00
17.240368700 1 100 Rx d 2 44 00
17.250818100 1 100 Rx d 2 45 00
17.261695200 1 080 Rx d 2 1C 0C
17.272901500 1 300 Rx d 1 46
17.283700800 1 100 Rx d 2 49 00
17.294450200 1 100 Rx d 2 4A 00
17.305087900 1 080 Rx d 2 4E 0C
17.315899400 1 080 Rx d 2 58 0C
17.326869800 1 080 Rx d 2 62 0C
17.337622600 1 080 Rx d 2 6C 0C
17.348643400 1 100 Rx d 2 4F 00
17.359467300 1 100 Rx d 2 50 00
17.370400400 1 100 Rx d 2 51 00
17.381131500 1 100 Rx d 2 52 00
17.391723700 1 100 Rx d 2 53 00
17.402382100 1 080 Rx d 2 A8 0C
17.413226200 1 080 Rx d 2 BC 0C
17.423849600 1 080 Rx d 2 C6 0C
17.434807100 1 100 Rx d 2 58 00
17.445579400 1 080 Rx d 2 DA 0C
17.456531200 1 700 Rx d 1 1D
17.467385600 1 080 Rx d 2 EE 0C
17.478158400 1 080 Rx d 2 F8 0C
17.488783400 1 100 Rx d 2 5D 00
17.499731600 1 080 Rx d 2 0C 0D
17.510533500 1 080 Rx d 2 16 0D
17.521190800 1 300 Rx d 1 5A
17.531934500 1 100 Rx d 2 61 00
17.543031400 1 300 Rx d 1 5C
17.554067300 1 300 Rx d 1 5D
17.565136400 1 300 Rx d 1 5E
17.575543400 1 300 Rx d 1 5F
17.586236700 1 300 Rx d 1 60
17.597144500 1 300 Rx d 1 61
17.607774600 1 080 Rx d 2 7A 0D
17.618341700 1 300 Rx d 1 62
17.629277500 1 300 Rx d 1 63
17.639966400 1 300 Rx d 1 64
17.650746200 1 300 Rx d 1 65
17.661773800 1 300 Rx d 1 66
17.672414000 1 100 Rx d 2 6F 00
17.683062400 1 080 Rx d 2 C0 0D
17.693496500 1 300 Rx d 1 69
17.704320300 1 300 Rx d 1 6A
17.715176700 1 300 Rx d 1 6B
17.725904700 1 080 Rx d 2 F2 0D
17.736951600 1 300 Rx d 1 6C
17.747879200 1 300 Rx d 1 6D
17.758778900 1 300 Rx d 1 6E
17.769637200 1 300 Rx d 1 6F
17.780243800 1 300 Rx d 1 70
17.791023700 1 100 Rx d 2 34 00
17.801854400 1 100 Rx d 2 35 00
17.812480000 1 080 Rx d 2 42 0E
17.823228900 1 080 Rx d 2 4C 0E
17.834037100 1 100 Rx d 2 38 00
17.844913900 1 100 Rx d 2 3A 00
17.855996900 1 700 Rx d 1 21
17.866845900 1 300 Rx d 1 77
17.877469600 1 300 Rx d 1 78
17.888157100 1 300 Rx d 1 79
17.899035900 1 300 Rx d 1 7A
17.909878800 1 100 Rx d 2 40 00
17.920997000 1 100 Rx d 2 41 00
17.931674900 1 100 Rx d 2 42 00
17.942305000 1 100 Rx d 2 43 00
17.953051700 1 080 Rx d 2 CE 0E
17.963475000 1 080 Rx d 2 D8 0E
17.974326800 1 080 Rx d 2 E2 0E
17.984967700 1 100 Rx d 2 47 00
17.995456900 1 100 Rx d 2 48 00
18.006268600 1 080 Rx d 2 00 0F
18.017106900 1 300 Rx d 1 84
18.027615800 1 300 Rx d 1 85
18.037974600 1 300 Rx d 1 86
18.048456500 1 100 Rx d 2 4E 00
18.059142200 1 700 Rx d 1 23
18.069350500 1 100 Rx d 2 50 00
18.080053700 1 080 Rx d 2 50 0F
18.090773700 1 100 Rx d 2 52 00
18.101803400 1 080 Rx d 2 64 0F
18.112554200 1 100 Rx d 2 54 00
18.123534800 1 080 Rx d 2 78 0F
18.134339200 1 080 Rx d 2 82 0F
18.144805800 1 300 Rx d 1 8F
18.155234700 1 700 Rx d 1 19
18.165955000 1 300 Rx d 1 91
18.176595200 1 300 Rx d 1 92
18.187552800 1 300 Rx d 1 93
18.198559100 1 080 Rx d 2 06 04
18.209490700 1 100 Rx d 2 5E 00
18.220499200 1 100 Rx d 2 5F 00
18.231202400 1 100 Rx d 2 60 00
18.241711600 1 100 Rx d 2 61 00
18.252652600 1 100 Rx d 2 62 00
18.263624200 1 080 Rx d 2 42 04
18.274236000 1 080 Rx d 2 4C 04
18.284560000 1 100 Rx d 2 65 00
18.295597900 1 080 Rx d 2 60 04
18.306303300 1 100 Rx d 2 67 00
18.317401600 1 100 Rx d 2 68 00
18.328558700 1 100 Rx d 2 69 00
18.339722600 1 100 Rx d 2 6A 00
18.350690400 1 080 Rx d 2 92 04
18.361409700 1 080 Rx d 2 9C 04
18.372631800 1 300 Rx d 1 A2
18.383644000 1 100 Rx d 2 6F 00
18.394359600 1 100 Rx d 2 70 00
18.405436000 1 100 Rx d 2 71 00
18.416175900 1 100 Rx d 2 72 00
18.426874400 1 080 Rx d 2 E2 04
18.437753600 1 100 Rx d 2 74 00
18.448823200 1 100 Rx d 2 75 00
18.459782700 1 080 Rx d 2 00 05
18.470989400 1 100 Rx d 2 77 00
18.481647600 1 100 Rx d 2 78 00
18.492751700 1 080 Rx d 2 1E 05
18.503397000 1 100 Rx d 2 33 00
18.514007100 1 080 Rx d 2 32 05
18.524675000 1 100 Rx d 2 35 00
18.535346400 1 100 Rx d 2 36 00
18.546227000 1 100 Rx d 2 37 00
18.556841700 1 080 Rx d 2 5A 05
18.567679100 1 700 Rx d 1 1D
18.578847700 1 100 Rx d 2 3B 00
18.589756600 1 100 Rx d 2 3C 00
18.600571500 1 100 Rx d 2 3D 00
18.611391900 1 100 Rx d 2 3E 00
18.622205000 1 100 Rx d 2 3F 00
18.633214900 1 100 Rx d 2 40 00
18.643777100 1 100 Rx d 2 41 00
18.654625300 1 100 Rx d 2 42 00
18.665201100 1 100 Rx d 2 43 00
18.675685000 1 100 Rx d 2 44 00
18.686277200 1 100 Rx d 2 45 00
18.696821000 1 100 Rx d 2 46 00
18.707794400 1 100 Rx d 2 47 00
18.718827600 1 080 Rx d 2 FA 05
18.729799000 1 080 Rx d 2 04 06
18.740306200 1 080 Rx d 2 0E 06
18.750650700 1 080 Rx d 2 18 06
18.761439800 1 100 Rx d 2 4D 00
18.772596600 1 700 Rx d 1 1F
18.783473700 1 080 Rx d 2 40 06
18.794229000 1 100 Rx d 2 50 00
18.805301100 1 100 Rx d 2 51 00
18.816225300 1 080 Rx d 2 5E 06
18.826699900 1 080 Rx d 2 68 06
18.837560700 1 080 Rx d 2 72 06
18.848389100 1 100 Rx d 2 55 00
18.859185700 1 100 Rx d 2 56 00
18.870106700 1 100 Rx d 2 57 00
18.881119200 1 100 Rx d 2 58 00
18.891748500 1 300 Rx d 1 CD
18.902904600 1 300 Rx d 1 CE
18.913458800 1 300 Rx d 1 CF
18.924197900 1 080 Rx d 2 C2 06
18.934958800 1 300 Rx d 1 D0
18.945689900 1 300 Rx d 1 D1
18.956517600 1 080 Rx d 2 EA 06
18.967389400 1 300 Rx d 1 D3
18.977907900 1 300 Rx d 1 D4
18.988556300 1 300 Rx d 1 D5
18.999009200 1 300 Rx d 1 D6
19.009665400 1 300 Rx d 1 D7
19.020193600 1 300 Rx d 1 D8
19.030702200 1 300 Rx d 1 D9
19.041407200 1 100 Rx d 2 68 00
19.052002800 1 300 Rx d 1 DA
19.062313500 1 300 Rx d 1 DB
19.073234800 1 300 Rx d 1 DC
19.084284100 1 300 Rx d 1 DD
19.094987500 1 300 Rx d 1 DE
19.105895900 1 100 Rx d 2 6E 00
19.116641500 1 300 Rx d 1 E0
19.127288400 1 300 Rx d 1 E1
19.137958600 1 300 Rx d 1 E2
19.148462300 1 300 Rx d 1 E3
19.158917500 1 100 Rx d 2 74 00
19.169336900 1 300 Rx d 1 E4
19.179928000 1 300 Rx d 1 E5
19.190884300 1 300 Rx d 1 E6
19.201476000 1 300 Rx d 1 E7
19.212424700 1 300 Rx d 1 E8
19.222910100 1 300 Rx d 1 E9
19.233456200 1 300 Rx d 1 EA
19.244094000 1 300 Rx d 1 EB
19.254659100 1 300 Rx d 1 EC
19.266059300 1 300 Rx d 1 ED
19.277053700 1 100 Rx d 2 38 00
19.287635400 1 080 Rx d 2 2A 08
19.298294500 1 300 Rx d 1 EF
19.308733700 1 300 Rx d 1 F0
19.319251000 1 300 Rx d 1 F1
19.329944400 1 300 Rx d 1 F2
19.340456700 1 300 Rx d 1 F3
19.351403300 1 300 Rx d 1 F4
19.361994200 1 300 Rx d 1 F5
19.373073400 1 300 Rx d 1 F6
19.384009100 1 300 Rx d 1 F7
19.394652200 1 100 Rx d 2 44 00
19.405251100 1 300 Rx d 1 F8
19.416110400 1 300 Rx d 1 F9
19.426922800 1 300 Rx d 1 FA
19.437560100 1 300 Rx d 1 FB
19.448445800 1 300 Rx d 1 FC
19.459119700 1 100 Rx d 2 4A 00
19.470202000 1 100 Rx d 2 4B 00
19.481290400 1 080 Rx d 2 E8 08
19.491887500 1 300 Rx d 1 00
19.502866600 1 300 Rx d 1 01
19.513498900 1 100 Rx d 2 50 00
19.524513300 1 300 Rx d 1 02
19.534962700 1 300 Rx d 1 03
19.545494700 1 300 Rx d 1 04
19.556461400 1 300 Rx d 1 05
19.566908000 1 300 Rx d 1 06
19.577313100 1 300 Rx d 1 07
19.587956400 1 300 Rx d 1 08
19.598778700 1 300 Rx d 1 09
19.609508900 1 300 Rx d 1 0A
19.620491200 1 100 Rx d 2 5A 00
19.631043400 1 100 Rx d 2 5B 00
19.641802300 1 100 Rx d 2 5C 00
19.652827200 1 100 Rx d 2 5D 00
19.663320100 1 100 Rx d 2 5E 00
19.674251300 1 300 Rx d 1 0F
19.684881300 1 300 Rx d 1 10
19.696150700 1 300 Rx d 1 11
19.707159700 1 300 Rx d 1 12
19.718149900 1 300 Rx d 1 13
19.728660700 1 300 Rx d 1 14
19.739256700 1 300 Rx d 1 15
19.750378200 1 100 Rx d 2 67 00
19.761303300 1 300 Rx d 1 16
19.772360200 1 300 Rx d 1 17
19.783020800 1 300 Rx d 1 18
19.793955400 1 080 Rx d 2 1E 0A
19.804959900 1 080 Rx d 2 28 0A
19.815711100 1 100 Rx d 2 6D 00
19.826665700 1 100 Rx d 2 6E 00
19.837742300 1 080 Rx d 2 46 0A
19.848244600 1 300 Rx d 1 1E
19.858838100 1 300 Rx d 1 1F
19.869585500 1 100 Rx d 2 73 00
19.879982100 1 300 Rx d 1 20
19.890573500 1 700 Rx d 1 1F
19.901215900 1 300 Rx d 1 22
19.912200800 1 300 Rx d 1 23
19.923212800 1 300 Rx d 1 24
19.933888000 1 300 Rx d 1 25
19.944694600 1 300 Rx d 1 26
19.955048300 1 100 Rx d 2 34 00
19.965631300 1 100 Rx d 2 35 00
19.976327800 1 100 Rx d 2 36 00
19.986851800 1 100 Rx d 2 37 00
19.997384100 1 100 Rx d 2 38 00
20.008294600 1 080 Rx d 2 F0 0A
20.019170000 1 300 Rx d 1 2C
20.029618600 1 300 Rx d 1 2D
20.040601700 1 300 Rx d 1 2E
20.051706500 1 300 Rx d 1 2F
20.062638000 1 300 Rx d 1 30
20.073275800 1 300 Rx d 1 31
20.084314200 1 300 Rx d 1 32
20.094781600 1 700 Rx d 1 21
20.105611600 1 100 Rx d 2 43 00
20.116434300 1 100 Rx d 2 44 00
20.127498700 1 100 Rx d 2 45 00
20.138289900 1 100 Rx d 2 46 00
20.149086800 1 100 Rx d 2 47 00
20.159840700 1 100 Rx d 2 48 00
20.170481400 1 100 Rx d 2 49 00
20.180994300 1 100 Rx d 2 4A 00
20.191552700 1 100 Rx d 2 4B 00
20.202159800 1 300 Rx d 1 3C
20.212721900 1 300 Rx d 1 3D
20.223196400 1 080 Rx d 2 CC 0B
20.233679100 1 300 Rx d 1 3E
20.244297200 1 300 Rx d 1 3F
20.255299400 1 300 Rx d 1 40
20.266173900 1 300 Rx d 1 41
20.276857700 1 300 Rx d 1 42
20.287458500 1 080 Rx d 2 08 0C
20.298221800 1 100 Rx d 2 56 00
20.308905500 1 100 Rx d 2 57 00
20.319650500 1 100 Rx d 2 58 00
20.330013600 1 080 Rx d 2 30 0C
20.340482300 1 080 Rx d 2 3A 0C
20.351216600 1 100 Rx d 2 5B 00
20.361765000 1 100 Rx d 2 5C 00
20.372917800 1 100 Rx d 2 5D 00
20.383304800 1 100 Rx d 2 5E 00
20.394019900 1 700 Rx d 1 19
20.405010900 1 300 Rx d 1 4D
20.415813700 1 300 Rx d 1 4E
20.426524700 1 300 Rx d 1 4F
20.436833300 1 300 Rx d 1 50
20.447791500 1 300 Rx d 1 51
20.458866700 1 080 Rx d 2 B2 0C
20.469780600 1 100 Rx d 2 67 00
20.480321700 1 100 Rx d 2 68 00
20.490996900 1 100 Rx d 2 69 00
20.501712000 1 080 Rx d 2 DA 0C
20.512431500 1 100 Rx d 2 6B 00
20.522986100 1 100 Rx d 2 6C 00
20.533692100 1 100 Rx d 2 6D 00
20.544404600 1 100 Rx d 2 6E 00
20.554920000 1 100 Rx d 2 6F 00
20.565557800 1 100 Rx d 2 70 00
20.576309200 1 080 Rx d 2 20 0D
20.587062500 1 300 Rx d 1 5C
20.597609200 1 700 Rx d 1 1B
20.608539200 1 300 Rx d 1 5E
20.619502900 1 300 Rx d 1 5F
20.630332300 1 300 Rx d 1 60
20.641055800 1 300 Rx d 1 61
20.652079600 1 100 Rx d 2 32 00
20.663158700 1 080 Rx d 2 7A 0D
20.674380400 1 100 Rx d 2 34 00
20.685579400 1 100 Rx d 2 35 00
20.696533300 1 100 Rx d 2 36 00
20.707707100 1 100 Rx d 2 37 00
20.718650400 1 080 Rx d 2 AC 0D
20.729403200 1 100 Rx d 2 39 00
20.740436900 1 100 Rx d 2 3A 00
20.750991800 1 100 Rx d 2 3B 00
20.762022800 1 080 Rx d 2 D4 0D
20.772768400 1 300 Rx d 1 6C
20.783528900 1 300 Rx d 1 6D
20.794547000 1 300 Rx d 1 6E
20.805048800 1 700 Rx d 1 1D
20.815528600 1 080 Rx d 2 10 0E
20.826292800 1 100 Rx d 2 43 00
20.837129200 1 100 Rx d 2 44 00
20.847665000 1 100 Rx d 2 45 00
20.858649500 1 100 Rx d 2 46 00
20.869526400 1 100 Rx d 2 47 00
20.880048400 1 100 Rx d 2 48 00
20.890690000 1 100 Rx d 2 49 00
20.901442000 1 100 Rx d 2 4A 00
20.912017000 1 100 Rx d 2 4B 00
20.922402600 1 100 Rx d 2 4C 00
20.933174000 1 100 Rx d 2 4D 00
20.943795600 1 100 Rx d 2 4E 00
20.954464900 1 300 Rx d 1 7B
20.965172000 1 300 Rx d 1 7C
20.975831800 1 300 Rx d 1 7D
20.986570500 1 300 Rx d 1 7E
20.997476700 1 300 Rx d 1 7F
21.008281200 1 700 Rx d 1 1F
21.018804200 1 100 Rx d 2 56 00
21.029398600 1 100 Rx d 2 57 00
21.039913800 1 100 Rx d 2 58 00
21.050749100 1 100 Rx d 2 59 00
21.061353000 1 100 Rx d 2 5A 00
21.071940900 1 100 Rx d 2 5B 00
21.082651100 1 100 Rx d 2 5C 00
21.093655600 1 100 Rx d 2 5D 00
21.104788400 1 100 Rx d 2 5E 00
21.115492200 1 100 Rx d 2 5F 00
21.126525200 1 100 Rx d 2 60 00
21.137768400 1 100 Rx d 2 61 00
21.148504600 1 080 Rx d 2 50 0F
21.159600200 1 300 Rx d 1 8D
21.170658700 1 080 Rx d 2 6E 0F
21.182036800 1 300 Rx d 1 8E
21.192409300 1 300 Rx d 1 8F
21.203063600 1 300 Rx d 1 90
21.213821400 1 700 Rx d 1 21
21.224247800 1 100 Rx d 2 6A 00
21.235049800 1 100 Rx d 2 6B 00
21.245706000 1 100 Rx d 2 6C 00
21.256544700 1 100 Rx d 2 6D 00
21.267049800 1 100 Rx d 2 6E 00
21.277713900 1 080 Rx d 2 10 04
21.288162500 1 100 Rx d 2 70 00
21.298534700 1 100 Rx d 2 71 00
21.309282700 1 100 Rx d 2 72 00
21.320085600 1 100 Rx d 2 73 00
21.331098500 1 080 Rx d 2 42 04
21.341840100 1 300 Rx d 1 9C
21.352202100 1 300 Rx d 1 9D
21.362764300 1 080 Rx d 2 6A 04
21.373805700 1 080 Rx d 2 74 04
21.384800200 1 100 Rx d 2 33 00
21.395447400 1 100 Rx d 2 34 00
21.406490200 1 100 Rx d 2 35 00
21.417157900 1 080 Rx d 2 9C 04
21.427780800 1 080 Rx d 2 A6 04
21.438626900 1 080 Rx d 2 B0 04
21.449257600 1 100 Rx d 2 39 00
21.460213200 1 100 Rx d 2 3A 00
21.471227300 1 100 Rx d 2 3B 00
21.482100100 1 100 Rx d 2 3C 00
21.518485900 1 100 Rx d 2 3D 00
21.546510000 1 080 Rx d 2 EC 04
21.557230200 1 700 Rx d 1 19
21.567625200 1 100 Rx d 2 41 00
21.578320700 1 300 Rx d 1 AC
21.588771600 1 100 Rx d 2 43 00
21.599556300 1 100 Rx d 2 44 00
21.610190800 1 100 Rx d 2 45 00
21.620485800 1 100 Rx d 2 46 00
21.631185300 1 100 Rx d 2 47 00
21.641720400 1 100 Rx d 2 48 00
21.652288900 1 100 Rx d 2 49 00
21.662805400 1 100 Rx d 2 4A 00
21.673390800 1 100 Rx d 2 4B 00
21.683977500 1 100 Rx d 2 4C 00
21.694602300 1 080 Rx d 2 82 05
21.705266800 1 080 Rx d 2 8C 05
21.715936300 1 080 Rx d 2 96 05
21.726454800 1 080 Rx d 2 A0 05
21.736651900 1 100 Rx d 2 52 00
21.747259300 1 100 Rx d 2 53 00
21.757877800 1 700 Rx d 1 1B
21.768645100 1 100 Rx d 2 55 00
21.779020900 1 100 Rx d 2 56 00
21.789622000 1 100 Rx d 2 57 00
21.800117000 1 100 Rx d 2 58 00
21.810762300 1 080 Rx d 2 FA 05
21.821185200 1 100 Rx d 2 5A 00
21.831779100 1 100 Rx d 2 5B 00
21.842094800 1 080 Rx d 2 18 06
21.853009100 1 100 Rx d 2 5D 00
21.864111700 1 080 Rx d 2 2C 06
21.875123100 1 100 Rx d 2 5F 00
21.885911700 1 080 Rx d 2 40 06
21.896575000 1 100 Rx d 2 62 00
21.907319000 1 100 Rx d 2 63 00
21.917930700 1 080 Rx d 2 68 06
21.928433500 1 100 Rx d 2 65 00
21.938960400 1 100 Rx d 2 66 00
21.949543000 1 100 Rx d 2 67 00
21.966664000 1 080 Rx d 2 90 06
21.977071200 1 100 Rx d 2 69 00
21.987576000 1 080 Rx d 2 A4 06
21.998153700 1 100 Rx d 2 6B 00
22.008547400 1 100 Rx d 2 6C 00
22.018929100 1 080 Rx d 2 C2 06
22.029814800 1 080 Rx d 2 D6 06
22.040551600 1 080 Rx d 2 E0 06
22.051365400 1 100 Rx d 2 71 00
22.062330100 1 700 Rx d 1 1E
22.072960000 1 080 Rx d 2 FE 06
22.083467800 1 100 Rx d 2 74 00
22.094411300 1 080 Rx d 2 12 07
22.104846500 1 300 Rx d 1 D8
22.115428100 1 300 Rx d 1 D9
22.125730400 1 300 Rx d 1 DA
22.136141800 1 300 Rx d 1 DB
22.147193100 1 300 Rx d 1 DC
22.157777800 1 300 Rx d 1 DD
22.168353600 1 100 Rx d 2 36 00
22.178890600 1 300 Rx d 1 DE
22.189452100 1 300 Rx d 1 DF
22.200111800 1 300 Rx d 1 E0
22.210700800 1 300 Rx d 1 E1
22.221271200 1 300 Rx d 1 E2
22.231918100 1 300 Rx d 1 E3
22.242414300 1 300 Rx d 1 E4
22.252763100 1 100 Rx d 2 3E 00
22.263399400 1 080 Rx d 2 BC 07
22.274139100 1 100 Rx d 2 40 00
22.284667000 1 100 Rx d 2 41 00
22.295001300 1 300 Rx d 1 E8
22.305325000 1 300 Rx d 1 E9
22.316103400 1 300 Rx d 1 EA
22.326546100 1 300 Rx d 1 EB
22.337113200 1 300 Rx d 1 EC
22.347857100 1 300 Rx d 1 ED
22.358470200 1 300 Rx d 1 EE
22.369082800 1 100 Rx d 2 4A 00
22.379828400 1 100 Rx d 2 4B 00
22.390558300 1 100 Rx d 2 4C 00
22.401213700 1 100 Rx d 2 4D 00
22.411799900 1 080 Rx d 2 52 08
22.422450600 1 080 Rx d 2 5C 08
22.432937500 1 300 Rx d 1 F4
22.443211100 1 300 Rx d 1 F5
22.453730500 1 700 Rx d 1 22
22.464409400 1 300 Rx d 1 F7
22.474734500 1 300 Rx d 1 F8
22.485655200 1 300 Rx d 1 F9
22.496429200 1 100 Rx d 2 57 00
22.507149700 1 100 Rx d 2 58 00
22.517715900 1 100 Rx d 2 59 00
22.528001400 1 080 Rx d 2 CA 08
22.538610400 1 100 Rx d 2 5B 00
22.549405100 1 080 Rx d 2 DE 08
22.560255900 1 080 Rx d 2 E8 08
22.570892800 1 300 Rx d 1 00
22.581653700 1 300 Rx d 1 01
22.592170600 1 300 Rx d 1 02
22.604170200 1 100 Rx d 2 62 00
22.615055600 1 100 Rx d 2 63 00
22.625575800 1 080 Rx d 2 2E 09
22.635950000 1 100 Rx d 2 65 00
22.648072000 1 100 Rx d 2 66 00
22.658701000 1 080 Rx d 2 4C 09
22.669137300 1 080 Rx d 2 56 09
22.679876500 1 100 Rx d 2 69 00
22.690484900 1 080 Rx d 2 6A 09
22.701158600 1 100 Rx d 2 6B 00
22.711770100 1 100 Rx d 2 6C 00
22.722401400 1 080 Rx d 2 88 09
22.733135700 1 300 Rx d 1 0E
22.743841400 1 100 Rx d 2 70 00
22.754559400 1 700 Rx d 1 1A
22.765157000 1 080 Rx d 2 BA 09
22.775412700 1 100 Rx d 2 73 00
22.785839600 1 100 Rx d 2 74 00
22.796404800 1 080 Rx d 2 D8 09
22.806810300 1 100 Rx d 2 76 00
22.817033100 1 100 Rx d 2 77 00
22.827599300 1 080 Rx d 2 F6 09
22.838051900 1 100 Rx d 2 32 00
22.848616100 1 100 Rx d 2 33 00
22.858931600 1 080 Rx d 2 14 0A
22.869411200 1 100 Rx d 2 36 00
22.879706200 1 080 Rx d 2 32 0A
22.890209300 1 100 Rx d 2 38 00
22.900664200 1 080 Rx d 2 46 0A
22.910958700 1 100 Rx d 2 3A 00
22.921634600 1 100 Rx d 2 3B 00
22.932341900 1 100 Rx d 2 3C 00
22.942921300 1 080 Rx d 2 6E 0A
22.953912900 1 080 Rx d 2 78 0A
22.965311800 1 100 Rx d 2 3F 00
22.975997100 1 100 Rx d 2 41 00
22.986417900 1 100 Rx d 2 42 00
22.996721700 1 100 Rx d 2 43 00
23.007292600 1 100 Rx d 2 44 00
23.017876500 1 100 Rx d 2 45 00
23.028563700 1 100 Rx d 2 46 00
23.038998600 1 100 Rx d 2 47 00
23.049694100 1 100 Rx d 2 48 00
23.059998700 1 100 Rx d 2 49 00
23.070557500 1 100 Rx d 2 4A 00
23.080845700 1 080 Rx d 2 FA 0A
23.091273300 1 080 Rx d 2 04 0B
23.101547300 1 100 Rx d 2 4E 00
23.112120200 1 100 Rx d 2 4F 00
23.122690500 1 100 Rx d 2 50 00
23.132982700 1 100 Rx d 2 51 00
23.143240400 1 700 Rx d 1 1E
23.153729000 1 100 Rx d 2 53 00
23.164296300 1 100 Rx d 2 54 00
23.174808300 1 100 Rx d 2 55 00
23.185311800 1 100 Rx d 2 56 00
23.195804700 1 100 Rx d 2 57 00
23.206482700 1 100 Rx d 2 58 00
23.216808200 1 100 Rx d 2 59 00
23.227141200 1 100 Rx d 2 5B 00
23.237607100 1 300 Rx d 1 38
23.248139400 1 300 Rx d 1 39
23.258781600 1 300 Rx d 1 3A
23.269452300 1 300 Rx d 1 3B
23.279825200 1 300 Rx d 1 3C
23.290518600 1 300 Rx d 1 3D
23.301100400 1 300 Rx d 1 3E
23.311350900 1 300 Rx d 1 3F
23.321688400 1 300 Rx d 1 40
23.332195900 1 300 Rx d 1 41
23.342576200 1 100 Rx d 2 66 00
23.352936600 1 300 Rx d 1 42
23.363195300 1 080 Rx d 2 1C 0C
23.373539500 1 100 Rx d 2 6A 00
23.383965400 1 300 Rx d 1 45
23.394596800 1 300 Rx d 1 46
23.404903800 1 300 Rx d 1 47
23.415472600 1 300 Rx d 1 48
23.425828300 1 300 Rx d 1 49
23.436464500 1 300 Rx d 1 4A
23.447052400 1 300 Rx d 1 4B
23.457623400 1 100 Rx d 2 72 00
23.468188800 1 300 Rx d 1 4C
23.478696600 1 080 Rx d 2 94 0C
23.489410700 1 080 Rx d 2 9E 0C
23.499981000 1 300 Rx d 1 4F
23.510597500 1 300 Rx d 1 50
23.521120300 1 300 Rx d 1 51
23.531680500 1 700 Rx d 1 22
23.542155600 1 300 Rx d 1 53
23.552843000 1 300 Rx d 1 54
23.563330100 1 300 Rx d 1 55
23.573655800 1 100 Rx d 2 37 00
23.583954400 1 300 Rx d 1 56
23.594613100 1 080 Rx d 2 0C 0D
23.605389500 1 100 Rx d 2 3A 00
23.615850400 1 100 Rx d 2 3B 00
23.626415500 1 100 Rx d 2 3C 00
23.636961600 1 100 Rx d 2 3D 00
23.647230600 1 080 Rx d 2 3E 0D
23.657553400 1 300 Rx d 1 5D
23.667761800 1 300 Rx d 1 5E
23.678210300 1 300 Rx d 1 5F
23.688382600 1 100 Rx d 2 43 00
23.699045200 1 300 Rx d 1 60
23.709643600 1 300 Rx d 1 61
23.720171500 1 300 Rx d 1 62
23.730528600 1 700 Rx d 1 19
23.741022900 1 300 Rx d 1 64
23.751591400 1 100 Rx d 2 49 00
23.762255400 1 100 Rx d 2 4A 00
23.773124600 1 080 Rx d 2 C0 0D
23.783518600 1 100 Rx d 2 4C 00
23.793956700 1 080 Rx d 2 D4 0D
23.804643800 1 080 Rx d 2 DE 0D
23.815100500 1 300 Rx d 1 6A
23.825570700 1 700 Rx d 1 1A
23.836466400 1 300 Rx d 1 6C
23.847074600 1 300 Rx d 1 6D
23.857805900 1 300 Rx d 1 6E
23.868680300 1 100 Rx d 2 55 00
23.879236900 1 080 Rx d 2 2E 0E
23.890174700 1 080 Rx d 2 38 0E
23.900545500 1 080 Rx d 2 42 0E
23.911163900 1 100 Rx d 2 59 00
23.922130700 1 100 Rx d 2 5A 00
23.932658400 1 100 Rx d 2 5B 00
23.943707700 1 080 Rx d 2 6A 0E
23.954615600 1 300 Rx d 1 76
23.965062700 1 300 Rx d 1 77
23.975745300 1 300 Rx d 1 78
23.986632000 1 100 Rx d 2 61 00
23.997661200 1 100 Rx d 2 62 00
24.008708800 1 080 Rx d 2 B0 0E
24.019247700 1 100 Rx d 2 64 00
24.029848300 1 100 Rx d 2 65 00
24.040606900 1 100 Rx d 2 66 00
24.051752400 1 100 Rx d 2 67 00
24.062420300 1 100 Rx d 2 68 00
24.073195400 1 100 Rx d 2 69 00
24.083573500 1 080 Rx d 2 F6 0E
24.094109200 1 300 Rx d 1 82
24.104586400 1 300 Rx d 1 83
24.115141000 1 300 Rx d 1 84
24.125787900 1 700 Rx d 1 1D
24.136422100 1 080 Rx d 2 32 0F
24.147401200 1 100 Rx d 2 71 00
24.158537400 1 080 Rx d 2 46 0F
24.169303100 1 080 Rx d 2 50 0F
24.180198800 1 080 Rx d 2 5A 0F
24.190737000 1 100 Rx d 2 75 00
24.201607800 1 100 Rx d 2 76 00
24.212390900 1 100 Rx d 2 77 00
24.223445800 1 100 Rx d 2 78 00
24.234122000 1 100 Rx d 2 32 00
24.244640100 1 300 Rx d 1 8F
24.255610200 1 100 Rx d 2 35 00
24.266061500 1 100 Rx d 2 36 00
24.276838100 1 080 Rx d 2 FC 03
24.287466700 1 100 Rx d 2 38 00
24.298641000 1 100 Rx d 2 39 00
24.309400600 1 100 Rx d 2 3A 00
24.320409700 1 100 Rx d 2 3B 00
24.331229500 1 080 Rx d 2 2E 04
24.341854900 1 100 Rx d 2 3D 00
24.352503500 1 080 Rx d 2 42 04
24.362952400 1 300 Rx d 1 99
24.373469100 1 100 Rx d 2 41 00
24.384142400 1 100 Rx d 2 42 00
24.395075500 1 100 Rx d 2 43 00
24.405840500 1 100 Rx d 2 44 00
24.416722900 1 100 Rx d 2 45 00
24.427353600 1 080 Rx d 2 92 04
24.438415500 1 100 Rx d 2 47 00
24.449279300 1 100 Rx d 2 48 00
24.460093800 1 080 Rx d 2 B0 04
24.470816700 1 100 Rx d 2 4A 00
24.481249000 1 100 Rx d 2 4B 00
24.491614600 1 080 Rx d 2 CE 04
24.502485200 1 100 Rx d 2 4E 00
24.513190300 1 080 Rx d 2 EC 04
24.524245100 1 700 Rx d 1 21
24.534723700 1 100 Rx d 2 51 00
24.545561700 1 300 Rx d 1 A7
24.556394200 1 300 Rx d 1 A8
24.566918300 1 300 Rx d 1 A9
24.577277400 1 300 Rx d 1 AA
24.587615000 1 300 Rx d 1 AB
24.597962100 1 300 Rx d 1 AC
24.608750600 1 300 Rx d 1 AD
24.620285900 1 300 Rx d 1 AE
24.630559700 1 100 Rx d 2 5A 00
24.641028000 1 080 Rx d 2 64 05
24.651822100 1 300 Rx d 1 B0
24.662080000 1 300 Rx d 1 B1
24.672645300 1 300 Rx d 1 B2
24.683019100 1 300 Rx d 1 B3
24.693717500 1 300 Rx d 1 B4
24.703961200 1 300 Rx d 1 B5
24.714299800 1 300 Rx d 1 B6
24.725043700 1 300 Rx d 1 B7
24.735694800 1 300 Rx d 1 B8
24.746822700 1 300 Rx d 1 B9
24.757416600 1 100 Rx d 2 67 00
24.768810300 1 300 Rx d 1 BA
24.779384700 1 300 Rx d 1 BB
24.789964500 1 100 Rx d 2 6A 00
24.800670000 1 300 Rx d 1 BD
24.811350000 1 300 Rx d 1 BE
24.821980500 1 300 Rx d 1 BF
24.832571600 1 300 Rx d 1 C0
24.843238700 1 300 Rx d 1 C1
24.853726500 1 300 Rx d 1 C2
24.864682600 1 300 Rx d 1 C3
24.875509700 1 100 Rx d 2 73 00
24.886730100 1 300 Rx d 1 C4
24.897694000 1 300 Rx d 1 C5
24.908811800 1 100 Rx d 2 76 00
24.919390100 1 100 Rx d 2 77 00
24.930378900 1 080 Rx d 2 86 06
24.941182700 1 100 Rx d 2 32 00
24.951826200 1 080 Rx d 2 9A 06
24.962699300 1 300 Rx d 1 CB
24.973227700 1 300 Rx d 1 CC
24.983969400 1 300 Rx d 1 CD
24.994783000 1 100 Rx d 2 38 00
25.005430200 1 300 Rx d 1 CE
25.016569000 1 300 Rx d 1 CF
25.027081200 1 300 Rx d 1 D0
25.037620500 1 300 Rx d 1 D1
25.048400200 1 100 Rx d 2 3D 00
25.058982100 1 100 Rx d 2 3E 00
25.069853200 1 080 Rx d 2 12 07
25.081173800 1 100 Rx d 2 40 00
25.091821600 1 100 Rx d 2 41 00
25.102374500 1 080 Rx d 2 30 07
25.112863000 1 100 Rx d 2 44 00
25.123592100 1 700 Rx d 1 1C
25.134462500 1 300 Rx d 1 D9
25.145107300 1 300 Rx d 1 DA
25.156114800 1 300 Rx d 1 DB
25.166567300 1 300 Rx d 1 DC
25.177515600 1 100 Rx d 2 4A 00
25.188303300 1 080 Rx d 2 8A 07
25.198938500 1 080 Rx d 2 94 07
25.209261100 1 100 Rx d 2 4D 00
25.219675100 1 100 Rx d 2 4E 00
25.230165400 1 100 Rx d 2 50 00
25.240671100 1 300 Rx d 1 E2
25.251494700 1 300 Rx d 1 E3
25.262310600 1 300 Rx d 1 E4
25.273018800 1 300 Rx d 1 E5
25.284072400 1 300 Rx d 1 E6
25.295049400 1 300 Rx d 1 E7
25.305583100 1 100 Rx d 2 57 00
25.316228700 1 080 Rx d 2 0C 08
25.326784300 1 080 Rx d 2 16 08
25.337482200 1 100 Rx d 2 5A 00
25.348364800 1 080 Rx d 2 2A 08
25.359116400 1 300 Rx d 1 EC
25.369896400 1 300 Rx d 1 ED
25.380691000 1 300 Rx d 1 EE
25.391647400 1 300 Rx d 1 EF
25.402268000 1 300 Rx d 1 F0
25.412766000 1 300 Rx d 1 F1
25.423530400 1 080 Rx d 2 7A 08
25.434179900 1 100 Rx d 2 64 00
25.445015600 1 100 Rx d 2 65 00
25.455653900 1 100 Rx d 2 66 00
25.466715700 1 080 Rx d 2 A2 08
25.477753700 1 080 Rx d 2 AC 08
25.488606800 1 100 Rx d 2 69 00
25.499294600 1 100 Rx d 2 6A 00
25.509982700 1 080 Rx d 2 CA 08
25.521037900 1 700 Rx d 1 20
25.531982100 1 300 Rx d 1 FB
25.542721100 1 100 Rx d 2 6F 00
25.553556700 1 100 Rx d 2 70 00
25.564175600 1 100 Rx d 2 71 00
25.574865500 1 100 Rx d 2 72 00
25.585552000 1 080 Rx d 2 1A 09
25.596254300 1 100 Rx d 2 74 00
25.606762000 1 100 Rx d 2 75 00
25.617427900 1 080 Rx d 2 38 09
25.628286300 1 100 Rx d 2 77 00
25.638817500 1 080 Rx d 2 4C 09
25.649651300 1 080 Rx d 2 56 09
25.660294800 1 100 Rx d 2 34 00
25.671489800 1 080 Rx d 2 74 09
25.682202100 1 100 Rx d 2 36 00
25.692752800 1 100 Rx d 2 37 00
25.703896900 1 100 Rx d 2 38 00
25.714619500 1 100 Rx d 2 39 00
25.725203400 1 100 Rx d 2 3A 00
25.736056400 1 100 Rx d 2 3B 00
25.747250700 1 100 Rx d 2 3C 00
25.758372300 1 080 Rx d 2 C4 09
25.769596300 1 100 Rx d 2 3E 00
25.780425500 1 080 Rx d 2 D8 09
25.791495600 1 300 Rx d 1 10
25.802490800 1 300 Rx d 1 11
25.813131400 1 300 Rx d 1 12
25.823890200 1 300 Rx d 1 13
25.834863600 1 100 Rx d 2 45 00
25.847434600 1 300 Rx d 1 14
25.857653500 1 300 Rx d 1 15
25.868362700 1 300 Rx d 1 16
25.878995200 1 300 Rx d 1 17
25.889821000 1 300 Rx d 1 18
25.900169800 1 300 Rx d 1 19
25.910750800 1 300 Rx d 1 1A
25.921346300 1 100 Rx d 2 4D 00
25.931891200 1 080 Rx d 2 6E 0A
25.942222900 1 300 Rx d 1 1D
25.952696700 1 100 Rx d 2 51 00
25.963421700 1 300 Rx d 1 1E
25.974149700 1 300 Rx d 1 1F
25.985006500 1 300 Rx d 1 20
25.995447100 1 300 Rx d 1 21
26.005838300 1 300 Rx d 1 22
26.016603500 1 300 Rx d 1 23
26.027138200 1 300 Rx d 1 24
26.037654500 1 300 Rx d 1 25
26.048282400 1 100 Rx d 2 5E 00
26.058913600 1 300 Rx d 1 27
26.069677700 1 100 Rx d 2 61 00
26.080148100 1 700 Rx d 1 1B
26.090617200 1 300 Rx d 1 29
26.101478000 1 300 Rx d 1 2A
26.111762000 1 300 Rx d 1 2B
26.122137000 1 300 Rx d 1 2C
26.132711400 1 300 Rx d 1 2D
26.143296300 1 300 Rx d 1 2E
26.153748000 1 100 Rx d 2 69 00
26.164503500 1 100 Rx d 2 6A 00
26.175014700 1 100 Rx d 2 6B 00
26.185380800 1 080 Rx d 2 9A 0B
26.195738500 1 100 Rx d 2 6D 00
26.206191600 1 300 Rx d 1 33
26.216758700 1 300 Rx d 1 34
26.227142300 1 300 Rx d 1 35
26.237677000 1 300 Rx d 1 36
26.248136600 1 300 Rx d 1 37
26.258808600 1 300 Rx d 1 38
26.269194800 1 300 Rx d 1 39
26.279932300 1 700 Rx d 1 1D
26.290443300 1 300 Rx d 1 3B
26.301344500 1 100 Rx d 2 78 00
26.311621900 1 300 Rx d 1 3C
26.322009400 1 100 Rx d 2 33 00
26.332693500 1 100 Rx d 2 34 00
26.343601400 1 100 Rx d 2 35 00
26.354185900 1 100 Rx d 2 36 00
26.364699000 1 100 Rx d 2 37 00
26.375650400 1 080 Rx d 2 58 0C
26.386037400 1 300 Rx d 1 43
26.396503600 1 300 Rx d 1 44
26.407167800 1 300 Rx d 1 45
26.417505100 1 100 Rx d 2 3D 00
26.428279900 1 300 Rx d 1 46
26.439006700 1 300 Rx d 1 47
26.449680900 1 080 Rx d 2 A8 0C
26.460755000 1 100 Rx d 2 41 00
26.471415700 1 300 Rx d 1 49
26.482414900 1 300 Rx d 1 4A
26.493155600 1 300 Rx d 1 4B
26.503759500 1 100 Rx d 2 46 00
26.514618900 1 300 Rx d 1 4D
26.525425200 1 300 Rx d 1 4E
26.536318500 1 100 Rx d 2 49 00
26.547073900 1 100 Rx d 2 4A 00
26.558007900 1 100 Rx d 2 4B 00
26.568708200 1 080 Rx d 2 20 0D
26.579648600 1 080 Rx d 2 2A 0D
26.590147200 1 100 Rx d 2 4E 00
26.601041600 1 100 Rx d 2 4F 00
26.611763000 1 080 Rx d 2 52 0D
26.622583400 1 100 Rx d 2 52 00
26.633170700 1 100 Rx d 2 53 00
26.644060200 1 100 Rx d 2 54 00
26.654871400 1 080 Rx d 2 7A 0D
26.665389200 1 100 Rx d 2 56 00
26.675740000 1 700 Rx d 1 21
26.686463400 1 080 Rx d 2 98 0D
26.697450400 1 100 Rx d 2 59 00
26.708143600 1 100 Rx d 2 5A 00
26.718647400 1 100 Rx d 2 5B 00
26.729464800 1 100 Rx d 2 5C 00
26.740662400 1 100 Rx d 2 5D 00
26.751277400 1 100 Rx d 2 5E 00
26.761766700 1 100 Rx d 2 5F 00
26.772427300 1 100 Rx d 2 60 00
26.782951200 1 080 Rx d 2 F2 0D
26.793744900 1 100 Rx d 2 63 00
26.804170900 1 080 Rx d 2 10 0E
26.815004900 1 100 Rx d 2 65 00
26.825686200 1 080 Rx d 2 24 0E
26.836595000 1 100 Rx d 2 67 00
26.847090200 1 100 Rx d 2 68 00
26.857797400 1 080 Rx d 2 42 0E
26.868193000 1 100 Rx d 2 6A 00
26.878884700 1 100 Rx d 2 6B 00
26.889359800 1 100 Rx d 2 6C 00
26.899921500 1 100 Rx d 2 6D 00
26.910677000 1 100 Rx d 2 6E 00
26.921365500 1 100 Rx d 2 6F 00
26.931863800 1 080 Rx d 2 88 0E
26.942595300 1 100 Rx d 2 71 00
26.953036500 1 100 Rx d 2 72 00
26.963777100 1 100 Rx d 2 73 00
26.974370400 1 100 Rx d 2 74 00
26.985006900 1 300 Rx d 1 75
26.995930000 1 300 Rx d 1 76
27.006733800 1 300 Rx d 1 77
27.017655200 1 100 Rx d 2 32 00
27.028215000 1 300 Rx d 1 78
27.038720200 1 300 Rx d 1 79
27.049455700 1 300 Rx d 1 7A
27.060163100 1 300 Rx d 1 7B
27.070959900 1 300 Rx d 1 7C
27.081607000 1 300 Rx d 1 7D
27.092499300 1 300 Rx d 1 7E
27.103605900 1 300 Rx d 1 7F
27.114381800 1 100 Rx d 2 3B 00
27.125401500 1 100 Rx d 2 3D 00
27.136008100 1 080 Rx d 2 5A 0F
27.146628100 1 100 Rx d 2 3F 00
27.157608700 1 300 Rx d 1 83
27.168249600 1 300 Rx d 1 84
27.179070500 1 300 Rx d 1 85
27.189725700 1 300 Rx d 1 86
27.200225800 1 300 Rx d 1 87
27.210967600 1 300 Rx d 1 88
27.221882400 1 300 Rx d 1 89
27.232538900 1 300 Rx d 1 8A
27.243161400 1 300 Rx d 1 8B
27.253893700 1 100 Rx d 2 49 00
27.264624200 1 100 Rx d 2 4B 00
27.275526900 1 700 Rx d 1 1C
27.286591100 1 100 Rx d 2 4D 00
27.297126400 1 080 Rx d 2 38 04
27.307892400 1 100 Rx d 2 4F 00
27.318404100 1 300 Rx d 1 91
27.329152300 1 300 Rx d 1 92
27.339792600 1 300 Rx d 1 93
27.350287500 1 300 Rx d 1 94
27.361244800 1 300 Rx d 1 95
27.371978500 1 100 Rx d 2 55 00
27.382620500 1 300 Rx d 1 96
27.393208200 1 300 Rx d 1 97
27.403809000 1 300 Rx d 1 98
27.414266900 1 300 Rx d 1 99
27.424794700 1 300 Rx d 1 9A
27.435305400 1 300 Rx d 1 9B
27.445907100 1 300 Rx d 1 9C
27.456506800 1 100 Rx d 2 5D 00
27.467085300 1 100 Rx d 2 5E 00
27.478051300 1 700 Rx d 1 1E
27.488798200 1 100 Rx d 2 61 00
27.499071100 1 100 Rx d 2 62 00
27.509735300 1 100 Rx d 2 63 00
27.520570200 1 100 Rx d 2 64 00
27.531715700 1 100 Rx d 2 65 00
27.542612000 1 100 Rx d 2 66 00
27.553308500 1 100 Rx d 2 67 00
27.563695700 1 080 Rx d 2 3C 05
27.574425300 1 100 Rx d 2 69 00
27.585230900 1 100 Rx d 2 6A 00
27.596215700 1 100 Rx d 2 6B 00
27.606710300 1 100 Rx d 2 6C 00
27.617671400 1 300 Rx d 1 AA
27.628545300 1 300 Rx d 1 AB
27.639550000 1 300 Rx d 1 AC
27.650251000 1 300 Rx d 1 AD
27.660875500 1 100 Rx d 2 71 00
27.671945000 1 100 Rx d 2 72 00
27.682518900 1 080 Rx d 2 AA 05
27.693397200 1 300 Rx d 1 B1
27.703949100 1 300 Rx d 1 B2
27.714678800 1 300 Rx d 1 B3
27.725492000 1 100 Rx d 2 78 00
27.736506100 1 300 Rx d 1 B4
27.747129000 1 300 Rx d 1 B5
27.757686100 1 300 Rx d 1 B6
27.768768900 1 300 Rx d 1 B7
27.779554500 1 300 Rx d 1 B8
27.790109000 1 300 Rx d 1 B9
27.801312400 1 300 Rx d 1 BA
27.812337000 1 300 Rx d 1 BB
27.822804200 1 300 Rx d 1 BC
27.833858400 1 300 Rx d 1 BD
27.844400600 1 100 Rx d 2 3C 00
27.855036100 1 100 Rx d 2 3D 00
27.865585100 1 100 Rx d 2 3E 00
27.876777100 1 100 Rx d 2 3F 00
27.887512800 1 100 Rx d 2 40 00
27.898509800 1 100 Rx d 2 41 00
27.909193000 1 080 Rx d 2 86 06
27.919831400 1 080 Rx d 2 90 06
27.930235900 1 300 Rx d 1 C5
27.940646500 1 300 Rx d 1 C6
27.951382500 1 300 Rx d 1 C7
27.961956800 1 100 Rx d 2 48 00
27.972473300 1 300 Rx d 1 C8
27.983052800 1 300 Rx d 1 C9
27.993652200 1 700 Rx d 1 23
28.004543400 1 300 Rx d 1 CB
28.015167200 1 300 Rx d 1 CC
28.025752400 1 300 Rx d 1 CD
28.036210100 1 100 Rx d 2 4F 00
28.046875000 1 100 Rx d 2 50 00
28.057709100 1 100 Rx d 2 51 00
28.068550000 1 100 Rx d 2 52 00
28.079104800 1 100 Rx d 2 53 00
28.089676400 1 100 Rx d 2 54 00
28.100132300 1 080 Rx d 2 44 07
28.110473000 1 100 Rx d 2 56 00
28.121249000 1 300 Rx d 1 D5
28.131640100 1 300 Rx d 1 D6
28.142765800 1 300 Rx d 1 D7
28.153446900 1 300 Rx d 1 D8
28.163861500 1 300 Rx d 1 D9
28.174788900 1 300 Rx d 1 DA
28.185698500 1 300 Rx d 1 DB
28.196395200 1 700 Rx d 1 1A
28.207171600 1 300 Rx d 1 DC
28.217975200 1 300 Rx d 1 DD
28.228760200 1 300 Rx d 1 DE
28.239625300 1 100 Rx d 2 63 00
28.250213200 1 080 Rx d 2 DA 07
28.261038800 1 080 Rx d 2 E4 07
28.271679500 1 100 Rx d 2 66 00
28.282203700 1 100 Rx d 2 67 00
28.292908600 1 100 Rx d 2 68 00
28.303471000 1 100 Rx d 2 69 00
28.314284900 1 100 Rx d 2 6A 00
28.325144300 1 080 Rx d 2 20 08
28.335873000 1 080 Rx d 2 2A 08
28.346604600 1 300 Rx d 1 E8
28.357205500 1 300 Rx d 1 E9
28.368085000 1 300 Rx d 1 EA
28.378731500 1 100 Rx d 2 71 00
28.389350300 1 100 Rx d 2 72 00
28.400128900 1 700 Rx d 1 1C
28.411014200 1 100 Rx d 2 74 00
28.421920300 1 080 Rx d 2 84 08
28.432522100 1 100 Rx d 2 76 00
28.443120900 1 100 Rx d 2 77 00
28.453671200 1 100 Rx d 2 78 00
28.464584700 1 100 Rx d 2 32 00
28.475476900 1 100 Rx d 2 33 00
28.486062200 1 300 Rx d 1 F4
28.496721700 1 700 Rx d 1 1D
28.507511900 1 300 Rx d 1 F6
28.518168200 1 100 Rx d 2 38 00
28.528764000 1 100 Rx d 2 39 00
28.539361300 1 100 Rx d 2 3A 00
28.550425900 1 100 Rx d 2 3B 00
28.561278900 1 080 Rx d 2 10 09
28.571973100 1 080 Rx d 2 1A 09
28.582600300 1 100 Rx d 2 3E 00
28.593289300 1 080 Rx d 2 2E 09
28.604004700 1 080 Rx d 2 38 09
28.614803300 1 080 Rx d 2 42 09
28.625462300 1 100 Rx d 2 42 00
28.636602200 1 300 Rx d 1 01
28.647697200 1 300 Rx d 1 02
28.658768600 1 100 Rx d 2 46 00
28.669783600 1 080 Rx d 2 7E 09
28.680490600 1 100 Rx d 2 48 00
28.691236500 1 100 Rx d 2 49 00
28.701821200 1 100 Rx d 2 4A 00
28.712457400 1 100 Rx d 2 4B 00
28.723159800 1 100 Rx d 2 4C 00
28.733997300 1 100 Rx d 2 4D 00
28.744350900 1 100 Rx d 2 4E 00
28.755162200 1 100 Rx d 2 4F 00
28.765875200 1 080 Rx d 2 D8 09
28.776612100 1 300 Rx d 1 0D
28.787253100 1 080 Rx d 2 F6 09
28.797897500 1 700 Rx d 1 20
28.808874200 1 080 Rx d 2 0A 0A
28.819976900 1 080 Rx d 2 14 0A
28.830373800 1 100 Rx d 2 57 00
28.841435300 1 100 Rx d 2 58 00
28.852462200 1 100 Rx d 2 59 00
28.862967900 1 100 Rx d 2 5A 00
28.873580700 1 080 Rx d 2 46 0A
28.884495400 1 100 Rx d 2 5C 00
28.894994300 1 100 Rx d 2 5D 00
28.905656000 1 080 Rx d 2 64 0A
28.916362200 1 080 Rx d 2 6E 0A
28.927279100 1 100 Rx d 2 61 00
28.937946100 1 100 Rx d 2 62 00
28.948404400 1 100 Rx d 2 63 00
28.959085300 1 080 Rx d 2 A0 0A
28.969887600 1 100 Rx d 2 65 00
28.980715600 1 100 Rx d 2 66 00
28.991455900 1 100 Rx d 2 67 00
29.002325200 1 080 Rx d 2 C8 0A
29.013192400 1 100 Rx d 2 69 00
29.023996000 1 100 Rx d 2 6A 00
29.034756700 1 100 Rx d 2 6B 00
29.046181600 1 080 Rx d 2 F0 0A
29.056929900 1 080 Rx d 2 FA 0A
29.067672600 1 100 Rx d 2 6F 00
29.078478400 1 100 Rx d 2 70 00
29.089227900 1 080 Rx d 2 22 0B
29.100071500 1 700 Rx d 1 23
29.110981000 1 300 Rx d 1 28
29.121840000 1 300 Rx d 1 29
29.132791500 1 300 Rx d 1 2A
29.143511400 1 300 Rx d 1 2B
29.154019500 1 100 Rx d 2 77 00
29.164883700 1 300 Rx d 1 2C
29.175535100 1 300 Rx d 1 2D
29.186266900 1 300 Rx d 1 2E
29.197010700 1 300 Rx d 1 2F
29.207776000 1 300 Rx d 1 30
29.218489600 1 100 Rx d 2 36 00
29.228782300 1 080 Rx d 2 A4 0B
29.239473000 1 100 Rx d 2 38 00
29.250222800 1 300 Rx d 1 34
29.260642100 1 300 Rx d 1 35
29.271368600 1 100 Rx d 2 3C 00
29.282143100 1 300 Rx d 1 36
29.292687400 1 300 Rx d 1 37
29.303605200 1 700 Rx d 1 1A
29.314515700 1 300 Rx d 1 39
29.325587400 1 300 Rx d 1 3A
29.336729700 1 300 Rx d 1 3B
29.347665100 1 300 Rx d 1 3C
29.358223000 1 080 Rx d 2 26 0C
29.368974600 1 100 Rx d 2 45 00
29.379774000 1 100 Rx d 2 46 00
29.390717000 1 100 Rx d 2 47 00
29.401443100 1 300 Rx d 1 40
29.412378300 1 300 Rx d 1 41
29.423524600 1 300 Rx d 1 42
29.434606400 1 300 Rx d 1 43
29.445189400 1 300 Rx d 1 44
29.455819800 1 300 Rx d 1 45
29.466760600 1 300 Rx d 1 46
29.477824600 1 080 Rx d 2 9E 0C
29.488977000 1 100 Rx d 2 51 00
29.499909900 1 100 Rx d 2 52 00
29.510979500 1 100 Rx d 2 53 00
29.522050400 1 080 Rx d 2 C6 0C
29.532620500 1 300 Rx d 1 4B
29.543366300 1 300 Rx d 1 4C
29.553951900 1 300 Rx d 1 4D
29.564741400 1 300 Rx d 1 4E
29.575549100 1 300 Rx d 1 4F
29.586556700 1 300 Rx d 1 50
29.597016900 1 100 Rx d 2 5C 00
29.607777800 1 100 Rx d 2 5D 00
29.618527600 1 080 Rx d 2 2A 0D
29.629424000 1 080 Rx d 2 34 0D
29.639961000 1 100 Rx d 2 60 00
29.650413000 1 080 Rx d 2 48 0D
29.661546300 1 100 Rx d 2 62 00
29.672251700 1 080 Rx d 2 5C 0D
29.682646100 1 300 Rx d 1 58
29.693396300 1 300 Rx d 1 59
29.704547900 1 700 Rx d 1 1E
29.715409500 1 300 Rx d 1 5B
29.726517800 1 100 Rx d 2 69 00
29.737176300 1 100 Rx d 2 6A 00
29.747762100 1 100 Rx d 2 6B 00
29.758790700 1 100 Rx d 2 6C 00
29.769470100 1 100 Rx d 2 6D 00
29.780313900 1 080 Rx d 2 CA 0D
29.790897800 1 100 Rx d 2 6F 00
29.801423200 1 080 Rx d 2 DE 0D
29.812026900 1 080 Rx d 2 E8 0D
29.822948600 1 080 Rx d 2 F2 0D
29.833564200 1 300 Rx d 1 65
29.844690600 1 300 Rx d 1 66
29.855104400 1 100 Rx d 2 76 00
29.865974700 1 100 Rx d 2 77 00
29.877004200 1 100 Rx d 2 78 00
29.887668300 1 100 Rx d 2 32 00
29.898518100 1 100 Rx d 2 33 00
29.909292000 1 100 Rx d 2 34 00
29.920288200 1 100 Rx d 2 35 00
29.930594100 1 100 Rx d 2 36 00
29.941553900 1 100 Rx d 2 37 00
29.952428800 1 100 Rx d 2 38 00
29.963216300 1 080 Rx d 2 7E 0E
29.973970800 1 080 Rx d 2 88 0E
29.984607600 1 100 Rx d 2 3C 00
29.995628000 1 100 Rx d 2 3D 00
30.006474900 1 700 Rx d 1 21
30.017236800 1 100 Rx d 2 3F 00
30.027917400 1 100 Rx d 2 40 00
30.038455700 1 080 Rx d 2 CE 0E
30.049025400 1 100 Rx d 2 42 00
30.059828100 1 100 Rx d 2 43 00
30.070711800 1 100 Rx d 2 44 00
30.081661900 1 100 Rx d 2 45 00
30.092236200 1 100 Rx d 2 46 00
30.102831000 1 100 Rx d 2 47 00
30.113442300 1 300 Rx d 1 7C
30.124369300 1 100 Rx d 2 4A 00
30.135084100 1 100 Rx d 2 4B 00
30.145568800 1 100 Rx d 2 4C 00
30.156726400 1 080 Rx d 2 46 0F
30.167221600 1 100 Rx d 2 4E 00
30.177999300 1 080 Rx d 2 5A 0F
30.189051400 1 100 Rx d 2 50 00
30.200032600 1 100 Rx d 2 51 00
30.210636700 1 100 Rx d 2 52 00
30.221644200 1 100 Rx d 2 53 00
30.232481400 1 100 Rx d 2 54 00
30.243391800 1 100 Rx d 2 55 00
30.254399100 1 300 Rx d 1 88
30.264962000 1 080 Rx d 2 F2 03
30.275924300 1 100 Rx d 2 59 00
30.286622000 1 100 Rx d 2 5A 00
30.297532100 1 100 Rx d 2 5B 00
30.308342800 1 100 Rx d 2 5C 00
30.319209500 1 100 Rx d 2 5D 00
30.330079600 1 100 Rx d 2 5E 00
30.340490900 1 100 Rx d 2 5F 00
30.350953500 1 100 Rx d 2 60 00
30.361595400 1 080 Rx d 2 4C 04
30.372322100 1 080 Rx d 2 60 04
30.383382100 1 100 Rx d 2 64 00
30.394486700 1 100 Rx d 2 65 00
30.405182500 1 700 Rx d 1 1A
30.415720300 1 100 Rx d 2 67 00
30.426383800 1 100 Rx d 2 68 00
30.436802900 1 100 Rx d 2 69 00
30.447504400 1 100 Rx d 2 6A 00
30.458055200 1 100 Rx d 2 6B 00
30.468631400 1 100 Rx d 2 6C 00
30.479191300 1 100 Rx d 2 6D 00
30.490016100 1 100 Rx d 2 6E 00
30.501005400 1 100 Rx d 2 6F 00
30.511991300 1 080 Rx d 2 E2 04
30.522790400 1 100 Rx d 2 72 00
30.533296100 1 080 Rx d 2 00 05
30.543845400 1 100 Rx d 2 74 00
30.554426900 1 100 Rx d 2 75 00
30.565097500 1 100 Rx d 2 76 00
30.575960800 1 100 Rx d 2 77 00
30.586763100 1 100 Rx d 2 78 00
30.597553300 1 100 Rx d 2 32 00
30.608081500 1 080 Rx d 2 46 05
30.618983100 1 100 Rx d 2 34 00
30.629755000 1 100 Rx d 2 35 00
30.640371400 1 080 Rx d 2 64 05
30.650710700 1 100 Rx d 2 37 00
30.661069100 1 100 Rx d 2 38 00
30.671625300 1 100 Rx d 2 39 00
30.682327800 1 100 Rx d 2 3A 00
30.692854600 1 100 Rx d 2 3B 00
30.703438800 1 080 Rx d 2 A0 05
30.714023000 1 100 Rx d 2 3E 00
30.724941500 1 300 Rx d 1 AF
30.735869000 1 300 Rx d 1 B0
30.746651300 1 300 Rx d 1 B1
30.757332700 1 300 Rx d 1 B2
30.767932600 1 300 Rx d 1 B3
30.778738500 1 300 Rx d 1 B4
30.789303100 1 300 Rx d 1 B5
30.799843600 1 300 Rx d 1 B6
30.810652400 1 300 Rx d 1 B7
30.821427400 1 080 Rx d 2 18 06
30.832462100 1 300 Rx d 1 B8
30.842902700 1 300 Rx d 1 B9
30.853663400 1 300 Rx d 1 BA
30.863995500 1 300 Rx d 1 BB
30.874352200 1 080 Rx d 2 4A 06
30.884922400 1 080 Rx d 2 54 06
30.895199200 1 080 Rx d 2 5E 06
30.905744200 1 300 Rx d 1 BF
30.916368500 1 300 Rx d 1 C0
30.926856500 1 300 Rx d 1 C1
30.937311000 1 100 Rx d 2 54 00
30.948042600 1 300 Rx d 1 C2
30.958933700 1 300 Rx d 1 C3
30.969533400 1 300 Rx d 1 C4
30.980172700 1 300 Rx d 1 C5
30.990992100 1 300 Rx d 1 C6
31.001544700 1 300 Rx d 1 C7
31.012261100 1 300 Rx d 1 C8
31.022845700 1 100 Rx d 2 5C 00
31.033290500 1 080 Rx d 2 EA 06
31.044181600 1 080 Rx d 2 F4 06
31.054445700 1 100 Rx d 2 60 00
31.065012600 1 300 Rx d 1 CC
31.075233900 1 300 Rx d 1 CD
31.085885600 1 300 Rx d 1 CE
31.096481800 1 300 Rx d 1 CF
31.106830100 1 700 Rx d 1 21
31.117232900 1 300 Rx d 1 D1
31.127886300 1 300 Rx d 1 D2
31.138547000 1 300 Rx d 1 D3
31.149198200 1 100 Rx d 2 69 00
31.159653900 1 100 Rx d 2 6A 00
31.170142200 1 080 Rx d 2 76 07
31.180654500 1 080 Rx d 2 80 07
31.191285700 1 300 Rx d 1 D7
31.201945800 1 300 Rx d 1 D8
31.212513400 1 300 Rx d 1 D9
31.223132800 1 300 Rx d 1 DA
31.233892500 1 300 Rx d 1 DB
31.244340300 1 300 Rx d 1 DC
31.255009100 1 300 Rx d 1 DD
31.265433700 1 080 Rx d 2 DA 07
31.276411500 1 100 Rx d 2 76 00
31.287347100 1 100 Rx d 2 77 00
31.297913500 1 100 Rx d 2 78 00
31.308722500 1 080 Rx d 2 02 08
31.319501300 1 080 Rx d 2 0C 08
31.330074800 1 080 Rx d 2 16 08
31.340632600 1 080 Rx d 2 20 08
31.351094000 1 300 Rx d 1 E5
31.361531700 1 300 Rx d 1 E6
31.372226400 1 300 Rx d 1 E7
31.382754000 1 080 Rx d 2 52 08
31.393200800 1 080 Rx d 2 5C 08
31.403849900 1 700 Rx d 1 19
31.414320000 1 100 Rx d 2 3D 00
31.424978700 1 100 Rx d 2 3E 00
31.435260600 1 080 Rx d 2 84 08
31.445931100 1 100 Rx d 2 40 00
31.456605500 1 100 Rx d 2 41 00
31.467480600 1 080 Rx d 2 A2 08
31.477784100 1 100 Rx d 2 43 00
31.488449700 1 100 Rx d 2 44 00
31.498786300 1 080 Rx d 2 C0 08
31.509403800 1 080 Rx d 2 CA 08
31.519847500 1 100 Rx d 2 48 00
31.530544800 1 300 Rx d 1 F4
31.541188100 1 100 Rx d 2 4A 00
31.551665600 1 080 Rx d 2 FC 08
31.562178100 1 100 Rx d 2 4C 00
31.573078200 1 080 Rx d 2 10 09
31.583591900 1 100 Rx d 2 4E 00
31.594016500 1 080 Rx d 2 24 09
31.604597400 1 080 Rx d 2 2E 09
31.615013000 1 100 Rx d 2 51 00
31.625496100 1 080 Rx d 2 42 09
31.635959600 1 100 Rx d 2 53 00
31.646769900 1 300 Rx d 1 FE
31.657391600 1 300 Rx d 1 FF
31.668328300 1 300 Rx d 1 00
31.679001600 1 100 Rx d 2 58 00
31.689788800 1 080 Rx d 2 88 09
31.700374200 1 700 Rx d 1 1C
31.710800900 1 100 Rx d 2 5B 00
31.721435800 1 100 Rx d 2 5C 00
31.732072600 1 100 Rx d 2 5D 00
31.742752400 1 080 Rx d 2 BA 09
31.753118800 1 080 Rx d 2 C4 09
31.763563100 1 100 Rx d 2 60 00
31.774146500 1 100 Rx d 2 61 00
31.784939100 1 100 Rx d 2 62 00
31.795535100 1 700 Rx d 1 1D
31.806554300 1 100 Rx d 2 65 00
31.817414700 1 100 Rx d 2 66 00
31.828307200 1 100 Rx d 2 67 00
31.839037700 1 080 Rx d 2 1E 0A
31.849634300 1 100 Rx d 2 69 00
31.860491100 1 080 Rx d 2 32 0A
31.871356300 1 100 Rx d 2 6B 00
31.881958600 1 100 Rx d 2 6C 00
31.892482300 1 100 Rx d 2 6D 00
31.902901200 1 100 Rx d 2 6E 00
31.913220100 1 300 Rx d 1 14
31.924044900 1 300 Rx d 1 15
31.934778600 1 100 Rx d 2 71 00
31.945533000 1 100 Rx d 2 72 00
31.955873100 1 300 Rx d 1 18
31.966465700 1 300 Rx d 1 19
31.977087800 1 300 Rx d 1 1A
31.987621600 1 300 Rx d 1 1B
31.998016800 1 700 Rx d 1 1F
32.008381200 1 300 Rx d 1 1C
32.019149100 1 300 Rx d 1 1D
32.029782200 1 300 Rx d 1 1E
32.040390000 1 300 Rx d 1 1F
32.050983700 1 100 Rx d 2 36 00
32.061374400 1 100 Rx d 2 37 00
32.072115700 1 100 Rx d 2 38 00
32.082759700 1 100 Rx d 2 39 00
32.093591500 1 100 Rx d 2 3A 00
32.104133900 1 300 Rx d 1 25
32.114510800 1 100 Rx d 2 3D 00
32.124926600 1 300 Rx d 1 26
32.135602100 1 300 Rx d 1 27
32.146248400 1 300 Rx d 1 28
32.157325800 1 300 Rx d 1 29
32.168223000 1 300 Rx d 1 2A
32.178587300 1 100 Rx d 2 43 00
32.189089400 1 100 Rx d 2 44 00
32.199690400 1 080 Rx d 2 86 0B
32.210236900 1 100 Rx d 2 46 00
32.220946500 1 100 Rx d 2 47 00
32.231847900 1 100 Rx d 2 48 00
32.242437500 1 300 Rx d 1 30
32.252960700 1 300 Rx d 1 31
32.263741800 1 300 Rx d 1 32
32.274191000 1 300 Rx d 1 33
32.284566000 1 300 Rx d 1 34
32.295293300 1 700 Rx d 1 22
32.306052300 1 100 Rx d 2 50 00
32.316628100 1 100 Rx d 2 51 00
32.327245300 1 100 Rx d 2 52 00
32.337673700 1 100 Rx d 2 53 00
32.348177200 1 100 Rx d 2 54 00
32.358686100 1 100 Rx d 2 55 00
32.369377000 1 080 Rx d 2 30 0C
32.379853700 1 300 Rx d 1 3C
32.390492200 1 700 Rx d 1 23
32.401325900 1 300 Rx d 1 3E
32.411695000 1 300 Rx d 1 3F
32.422537200 1 100 Rx d 2 5C 00
32.433244700 1 100 Rx d 2 5D 00
32.443663600 1 100 Rx d 2 5E 00
32.454441200 1 100 Rx d 2 5F 00
32.465069900 1 100 Rx d 2 60 00
32.475814500 1 100 Rx d 2 61 00
32.486473900 1 100 Rx d 2 62 00
32.497424700 1 100 Rx d 2 63 00
32.508183000 1 080 Rx d 2 BC 0C
32.518547700 1 100 Rx d 2 65 00
32.529155800 1 080 Rx d 2 D0 0C
32.539803700 1 080 Rx d 2 E4 0C
32.550418100 1 080 Rx d 2 EE 0C
32.560750000 1 100 Rx d 2 6A 00
32.571569100 1 100 Rx d 2 6B 00
32.582282600 1 100 Rx d 2 6C 00
32.592814000 1 700 Rx d 1 1A
32.603458600 1 100 Rx d 2 6E 00
32.614016100 1 100 Rx d 2 6F 00
32.624650500 1 080 Rx d 2 34 0D
32.635373000 1 080 Rx d 2 3E 0D
32.645903400 1 080 Rx d 2 48 0D
32.656580900 1 100 Rx d 2 73 00
32.667501100 1 080 Rx d 2 5C 0D
32.678147500 1 100 Rx d 2 75 00
32.689010800 1 080 Rx d 2 70 0D
32.699946300 1 080 Rx d 2 84 0D
32.710435200 1 100 Rx d 2 32 00
32.721063000 1 100 Rx d 2 33 00
32.731943900 1 100 Rx d 2 34 00
32.742507200 1 100 Rx d 2 35 00
32.753396600 1 100 Rx d 2 36 00
32.764124700 1 100 Rx d 2 37 00
32.774614300 1 080 Rx d 2 CA 0D
32.785167100 1 100 Rx d 2 39 00
32.795959400 1 100 Rx d 2 3A 00
32.806552800 1 100 Rx d 2 3B 00
32.817756600 1 100 Rx d 2 3C 00
32.828146600 1 100 Rx d 2 3D 00
32.838709900 1 100 Rx d 2 3F 00
32.849074000 1 100 Rx d 2 40 00
32.859725200 1 100 Rx d 2 41 00
32.870214600 1 080 Rx d 2 2E 0E
32.880553100 1 100 Rx d 2 43 00
32.891286900 1 700 Rx d 1 1D
32.902019700 1 300 Rx d 1 68
32.912432000 1 300 Rx d 1 69
32.922994800 1 300 Rx d 1 6A
32.933563100 1 300 Rx d 1 6B
32.944251400 1 080 Rx d 2 74 0E
32.954706800 1 300 Rx d 1 6C
32.965033200 1 100 Rx d 2 4B 00
32.975566000 1 100 Rx d 2 4C 00
32.986091000 1 300 Rx d 1 6F
32.996696500 1 300 Rx d 1 70
33.007246400 1 300 Rx d 1 71
33.017798300 1 300 Rx d 1 72
33.028558900 1 300 Rx d 1 73
33.039048400 1 300 Rx d 1 74
33.049876200 1 300 Rx d 1 75
33.060288400 1 100 Rx d 2 55 00
33.070920400 1 300 Rx d 1 76
33.081690000 1 300 Rx d 1 77
33.092496900 1 300 Rx d 1 78
33.103206400 1 300 Rx d 1 79
33.113652300 1 300 Rx d 1 7A
33.124104700 1 300 Rx d 1 7B
33.134888800 1 300 Rx d 1 7C
33.145673300 1 300 Rx d 1 7D
33.156450700 1 300 Rx d 1 7E
33.167217900 1 300 Rx d 1 7F
33.177921500 1 100 Rx d 2 61 00
33.188575100 1 080 Rx d 2 6E 0F
33.199059900 1 100 Rx d 2 63 00
33.209574800 1 300 Rx d 1 82
33.220064700 1 300 Rx d 1 83
33.230441300 1 300 Rx d 1 84
33.240799500 1 080 Rx d 2 A0 0F
33.251126800 1 100 Rx d 2 68 00
33.261754900 1 080 Rx d 2 F2 03
33.272722400 1 300 Rx d 1 88
33.283321000 1 300 Rx d 1 89
33.294032400 1 100 Rx d 2 6D 00
33.304750600 1 300 Rx d 1 8A
33.315127400 1 300 Rx d 1 8B
33.325770500 1 300 Rx d 1 8C
33.336625800 1 300 Rx d 1 8D
33.346901300 1 300 Rx d 1 8E
33.357554800 1 300 Rx d 1 8F
33.368503600 1 100 Rx d 2 74 00
33.379306500 1 100 Rx d 2 75 00
33.390054000 1 100 Rx d 2 76 00
33.400635900 1 080 Rx d 2 7E 04
33.410988800 1 100 Rx d 2 32 00
33.421513100 1 300 Rx d 1 94
33.432463300 1 300 Rx d 1 95
33.443145800 1 300 Rx d 1 96
33.453821500 1 300 Rx d 1 97
33.464201500 1 300 Rx d 1 98
33.475099500 1 300 Rx d 1 99
33.485933300 1 300 Rx d 1 9A
33.496528500 1 300 Rx d 1 9B
33.507264100 1 100 Rx d 2 3B 00
33.517589800 1 100 Rx d 2 3C 00
33.528109500 1 100 Rx d 2 3D 00
33.538709400 1 080 Rx d 2 0A 05
33.549277700 1 300 Rx d 1 9F
33.559773600 1 300 Rx d 1 A0
33.570743600 1 300 Rx d 1 A1
33.581353700 1 700 Rx d 1 19
33.592075800 1 300 Rx d 1 A3
33.602817000 1 300 Rx d 1 A4
33.613182100 1 080 Rx d 2 5A 05
33.623691600 1 100 Rx d 2 47 00
33.634388300 1 100 Rx d 2 48 00
33.644904200 1 100 Rx d 2 49 00
33.655671600 1 080 Rx d 2 82 05
33.666298400 1 100 Rx d 2 4B 00
33.676780400 1 700 Rx d 1 1A
33.687392400 1 300 Rx d 1 AB
33.698054300 1 300 Rx d 1 AC
33.708639900 1 300 Rx d 1 AD
33.719010400 1 300 Rx d 1 AE
33.729640900 1 300 Rx d 1 AF
33.740200000 1 100 Rx d 2 53 00
33.750794700 1 100 Rx d 2 54 00
33.761107900 1 100 Rx d 2 55 00
33.771983300 1 100 Rx d 2 56 00
33.782422700 1 100 Rx d 2 57 00
33.793143000 1 100 Rx d 2 58 00
33.803618600 1 100 Rx d 2 59 00
33.814130200 1 100 Rx d 2 5A 00
33.824467200 1 300 Rx d 1 B7
33.834961900 1 300 Rx d 1 B8
33.845371500 1 300 Rx d 1 B9
33.856191400 1 300 Rx d 1 BA
33.866782200 1 080 Rx d 2 5E 06
33.877338100 1 700 Rx d 1 1C
33.887808500 1 100 Rx d 2 62 00
33.898568700 1 100 Rx d 2 63 00
33.909097600 1 100 Rx d 2 64 00
33.919739500 1 080 Rx d 2 90 06
33.930297700 1 100 Rx d 2 66 00
33.940678100 1 080 Rx d 2 A4 06
33.951593800 1 300 Rx d 1 C2
33.962128500 1 300 Rx d 1 C3
33.972782700 1 700 Rx d 1 1D
33.983391700 1 080 Rx d 2 D6 06
33.993777300 1 080 Rx d 2 E0 06
34.004317500 1 100 Rx d 2 6E 00
34.014704600 1 080 Rx d 2 F4 06
34.024975700 1 100 Rx d 2 70 00
34.035770500 1 100 Rx d 2 71 00
34.046539700 1 100 Rx d 2 72 00
34.057143600 1 100 Rx d 2 73 00
34.067631800 1 700 Rx d 1 1E
34.078326100 1 300 Rx d 1 CD
34.088900000 1 300 Rx d 1 CE
34.099565500 1 100 Rx d 2 78 00
34.110261900 1 100 Rx d 2 32 00
34.120698800 1 100 Rx d 2 33 00
34.131385600 1 080 Rx d 2 6C 07
34.142158200 1 100 Rx d 2 35 00
34.152619800 1 100 Rx d 2 36 00
34.163045200 1 100 Rx d 2 37 00
34.173449700 1 100 Rx d 2 38 00
34.184202100 1 100 Rx d 2 39 00
34.194916500 1 100 Rx d 2 3A 00
34.205455100 1 300 Rx d 1 D8
34.216194300 1 300 Rx d 1 D9
34.226614000 1 100 Rx d 2 3E 00
34.237165200 1 300 Rx d 1 DA
34.247771500 1 080 Rx d 2 E4 07
34.258500200 1 100 Rx d 2 41 00
34.269160500 1 100 Rx d 2 42 00
34.279736300 1 100 Rx d 2 43 00
34.290226300 1 100 Rx d 2 44 00
34.300617000 1 100 Rx d 2 45 00
34.311355100 1 100 Rx d 2 46 00
34.321700600 1 100 Rx d 2 47 00
34.332260600 1 080 Rx d 2 34 08
34.342446600 1 080 Rx d 2 3E 08
34.353027900 1 300 Rx d 1 E4
34.363723200 1 700 Rx d 1 21
34.374387200 1 300 Rx d 1 E6
34.385133400 1 100 Rx d 2 4E 00
34.395699000 1 100 Rx d 2 4F 00
34.406449200 1 100 Rx d 2 50 00
34.417176300 1 100 Rx d 2 51 00
34.427920600 1 100 Rx d 2 52 00
34.438723500 1 100 Rx d 2 53 00
34.449309800 1 080 Rx d 2 AC 08
34.459809400 1 100 Rx d 2 55 00
34.470270400 1 100 Rx d 2 56 00
34.480698700 1 300 Rx d 1 EF
34.491374100 1 300 Rx d 1 F0
34.502166500 1 300 Rx d 1 F1
34.512946200 1 080 Rx d 2 F2 08
34.523927200 1 080 Rx d 2 FC 08
34.534428400 1 100 Rx d 2 5D 00
34.545076600 1 100 Rx d 2 5E 00
34.555787300 1 080 Rx d 2 1A 09
34.566446700 1 100 Rx d 2 60 00
34.577231100 1 100 Rx d 2 61 00
34.587799500 1 100 Rx d 2 62 00
34.598482000 1 080 Rx d 2 42 09
34.609133000 1 100 Rx d 2 64 00
34.619880000 1 080 Rx d 2 56 09
34.630121700 1 100 Rx d 2 67 00
34.640825600 1 080 Rx d 2 74 09
34.651226600 1 100 Rx d 2 69 00
34.661491200 1 700 Rx d 1 19
34.671866800 1 100 Rx d 2 6B 00
34.682388900 1 080 Rx d 2 9C 09
34.692961700 1 100 Rx d 2 6D 00
34.703848300 1 100 Rx d 2 6E 00
34.714312300 1 100 Rx d 2 6F 00
34.725037100 1 100 Rx d 2 70 00
34.735848800 1 100 Rx d 2 71 00
34.746547600 1 100 Rx d 2 72 00
34.757349600 1 700 Rx d 1 1A
34.768160400 1 100 Rx d 2 75 00
34.779017900 1 080 Rx d 2 00 0A
34.789854600 1 100 Rx d 2 77 00
34.800227600 1 100 Rx d 2 78 00
34.811126500 1 100 Rx d 2 32 00
34.821969300 1 100 Rx d 2 33 00
34.832847600 1 100 Rx d 2 34 00
34.843235900 1 100 Rx d 2 35 00
34.854328400 1 100 Rx d 2 36 00
34.864883900 1 100 Rx d 2 37 00
34.875712200 1 100 Rx d 2 38 00
34.886406800 1 100 Rx d 2 3A 00
34.897008300 1 100 Rx d 2 3B 00
34.907688000 1 080 Rx d 2 82 0A
34.918633900 1 080 Rx d 2 8C 0A
34.929079100 1 100 Rx d 2 3E 00
34.939881900 1 080 Rx d 2 A0 0A
34.950627800 1 100 Rx d 2 40 00
34.961063800 1 700 Rx d 1 1C
34.972053400 1 080 Rx d 2 BE 0A
34.982682200 1 080 Rx d 2 C8 0A
34.993345900 1 100 Rx d 2 44 00
35.003826900 1 100 Rx d 2 45 00
35.014464300 1 100 Rx d 2 46 00
35.025040300 1 080 Rx d 2 F0 0A
35.035790500 1 100 Rx d 2 48 00
35.046661100 1 100 Rx d 2 4A 00
35.057050200 1 700 Rx d 1 1D
35.067708000 1 100 Rx d 2 4C 00
35.078347900 1 100 Rx d 2 4D 00
35.088836800 1 080 Rx d 2 36 0B
35.099605900 1 100 Rx d 2 4F 00
35.110428100 1 100 Rx d 2 50 00
35.121243400 1 100 Rx d 2 51 00
35.131804500 1 300 Rx d 1 26
35.142439400 1 300 Rx d 1 27
35.152676200 1 300 Rx d 1 28
35.163344800 1 300 Rx d 1 29
35.174034600 1 100 Rx d 2 56 00
35.184687300 1 300 Rx d 1 2A
35.195059200 1 100 Rx d 2 58 00
35.205646900 1 080 Rx d 2 A4 0B
35.216591600 1 300 Rx d 1 2D
35.227010000 1 300 Rx d 1 2E
35.237730000 1 300 Rx d 1 2F
35.248336500 1 300 Rx d 1 30
35.259108800 1 700 Rx d 1 1F
35.269772500 1 300 Rx d 1 32
35.280390100 1 300 Rx d 1 33
35.290853300 1 100 Rx d 2 62 00
35.301641400 1 300 Rx d 1 34
35.312525500 1 300 Rx d 1 35
35.323463000 1 100 Rx d 2 65 00
35.334125300 1 100 Rx d 2 66 00
35.344563500 1 100 Rx d 2 67 00
35.354927800 1 100 Rx d 2 68 00
35.366192600 1 300 Rx d 1 3A
35.377040100 1 300 Rx d 1 3B
35.387854300 1 300 Rx d 1 3C
35.398344500 1 300 Rx d 1 3D
35.408762400 1 100 Rx d 2 6E 00
35.419596700 1 300 Rx d 1 3E
35.430113900 1 300 Rx d 1 3F
35.441035700 1 300 Rx d 1 40
35.451635400 1 300 Rx d 1 41
35.461945200 1 300 Rx d 1 42
35.472666500 1 300 Rx d 1 43
35.483315800 1 300 Rx d 1 44
35.493810100 1 100 Rx d 2 76 00
35.504693700 1 080 Rx d 2 D0 0C
35.515421300 1 100 Rx d 2 78 00
35.526016400 1 100 Rx d 2 32 00
35.536427400 1 100 Rx d 2 33 00
35.546723800 1 300 Rx d 1 49
35.557490300 1 300 Rx d 1 4A
35.568353000 1 300 Rx d 1 4B
35.578722400 1 300 Rx d 1 4C
35.589293700 1 300 Rx d 1 4D
35.599801000 1 300 Rx d 1 4E
35.610728400 1 300 Rx d 1 4F
35.621383900 1 300 Rx d 1 50
35.631916600 1 300 Rx d 1 51
35.642824500 1 100 Rx d 2 3E 00
35.653640800 1 100 Rx d 2 3F 00
35.664464400 1 080 Rx d 2 70 0D
35.674772400 1 100 Rx d 2 41 00
35.685417900 1 100 Rx d 2 42 00
35.696192800 1 100 Rx d 2 43 00
35.706959700 1 100 Rx d 2 44 00
35.717554600 1 080 Rx d 2 A2 0D
35.727997600 1 100 Rx d 2 46 00
35.738397000 1 080 Rx d 2 B6 0D
35.749073400 1 300 Rx d 1 5B
35.759762100 1 700 Rx d 1 19
35.770464100 1 300 Rx d 1 5C
35.781308300 1 300 Rx d 1 5D
35.792015400 1 300 Rx d 1 5E
35.802464500 1 300 Rx d 1 5F
35.813313300 1 300 Rx d 1 60
35.824268200 1 100 Rx d 2 50 00
35.835171600 1 100 Rx d 2 51 00
35.845682600 1 100 Rx d 2 52 00
35.856258600 1 100 Rx d 2 53 00
35.866714700 1 080 Rx d 2 38 0E
35.877300800 1 100 Rx d 2 55 00
35.887761300 1 100 Rx d 2 56 00
35.898416300 1 100 Rx d 2 57 00
35.909312400 1 080 Rx d 2 60 0E
35.920203100 1 300 Rx d 1 69
35.930757800 1 300 Rx d 1 6A
35.941300600 1 300 Rx d 1 6B
35.951845700 1 300 Rx d 1 6C
35.962736000 1 700 Rx d 1 1B
35.973365800 1 300 Rx d 1 6E
35.984088700 1 300 Rx d 1 6F
35.994736900 1 100 Rx d 2 61 00
36.005559300 1 300 Rx d 1 70
36.016104600 1 080 Rx d 2 CE 0E
36.026683800 1 100 Rx d 2 64 00
36.037349300 1 100 Rx d 2 65 00
36.047899300 1 100 Rx d 2 66 00
36.058470000 1 080 Rx d 2 F6 0E
36.069255500 1 100 Rx d 2 68 00
36.079833200 1 100 Rx d 2 69 00
36.090461100 1 100 Rx d 2 6A 00
36.101377300 1 080 Rx d 2 1E 0F
36.111748600 1 100 Rx d 2 6D 00
36.122320700 1 300 Rx d 1 7A
36.132810800 1 300 Rx d 1 7B
36.143515000 1 300 Rx d 1 7C
36.154298900 1 100 Rx d 2 71 00
36.165077500 1 700 Rx d 1 1D
36.175614400 1 100 Rx d 2 73 00
36.186449200 1 080 Rx d 2 78 0F
36.196892000 1 100 Rx d 2 75 00
36.207418400 1 100 Rx d 2 76 00
36.218093200 1 100 Rx d 2 77 00
36.228706400 1 100 Rx d 2 78 00
36.238943300 1 100 Rx d 2 32 00
36.249505500 1 100 Rx d 2 33 00
36.260223300 1 100 Rx d 2 34 00
36.270718600 1 080 Rx d 2 06 04
36.281509400 1 300 Rx d 1 88
36.292134300 1 300 Rx d 1 89
36.302552000 1 300 Rx d 1 8A
36.312819300 1 100 Rx d 2 3A 00
36.323240000 1 100 Rx d 2 3B 00
36.333796400 1 100 Rx d 2 3C 00
36.344305200 1 100 Rx d 2 3D 00
36.354923800 1 100 Rx d 2 3E 00
36.365711000 1 080 Rx d 2 6A 04
36.376220800 1 100 Rx d 2 40 00
36.386829400 1 100 Rx d 2 41 00
36.397541500 1 100 Rx d 2 42 00
36.407797800 1 080 Rx d 2 92 04
36.418044400 1 080 Rx d 2 9C 04
36.428301500 1 300 Rx d 1 95
36.438781700 1 300 Rx d 1 96
36.449355100 1 300 Rx d 1 97
36.459967200 1 700 Rx d 1 20
